

        *** EAGLE-TRT
        *** Telemetry Log File
        *** 12/15/2020, 18:12:54        

        *** Pilot: Mirco
        *** Race: Acceleration
        *** Circuit: Vadena        

(1608055974.318981) can0 202#903C000000000000
(1608055974.319519) can0 201#90C4000000000000
(1608055974.319988) can0 4EC#0047FFE3008B0000
(1608055974.320601) can0 202#903C000000000000
(1608055974.321185) can0 4ED#00040002FF9E0000
(1608055974.321964) can0 0C0#022DA20000000000
(1608055974.322457) can0 201#90C4000000000000
(1608055974.322852) can0 0C0#0113891387138D32
(1608055974.323355) can0 202#903C000000000000
(1608055974.323759) can0 0C0#0001910191019004
(1608055974.324161) can0 201#90C4000000000000
(1608055974.324551) can0 0D0#150309030900006B
(1608055974.324975) can0 202#903C000000000000
(1608055974.325550) can0 4EC#0048FFE000920000
(1608055974.325989) can0 0D0#080000000000006B
(1608055974.326419) can0 201#90C4000000000000
(1608055974.326830) can0 0AA#0500070000
(1608055974.327416) can0 0AA#01420FC99DC49A33
(1608055974.327873) can0 4ED#00040003FF9D0000
(1608055974.328327) can0 0D0#0700000000000000
(1608055974.328789) can0 202#903C000000000000
(1608055974.329235) can0 0D0#060000000000006B
(1608055974.329680) can0 201#90C4000000000000
(1608055974.330048) can0 202#903C000000000000
(1608055974.330440) can0 4EC#003CFFE500960000
(1608055974.330800) can0 201#90C4000000000000
(1608055974.331252) can0 4ED#00040003FF9E0000
(1608055974.331688) can0 202#903C000000000000
(1608055974.332101) can0 0B0#01015F0500000000
(1608055974.332593) can0 201#90C4000000000000
(1608055974.333035) can0 0B0#02640105F501006E
(1608055974.333480) can0 202#903C000000000000
(1608055974.333895) can0 201#90C4000000000000
(1608055974.334310) can0 4EC#003EFFE000940000
(1608055974.334745) can0 202#903C000000000000
(1608055974.335280) can0 4ED#00040002FF9E0000
(1608055974.335884) can0 0AF#000000
(1608055974.336354) can0 201#9062000000000000
(1608055974.336732) can0 201#3DD8
(1608055974.337180) can0 202#909E000000000000
(1608055974.337652) can0 201#9062000000000000
(1608055974.338066) can0 0AA#05000A0000
(1608055974.338494) can0 0AA#014211189DD89A33
(1608055974.338942) can0 4EC#0037FFE700960000
(1608055974.339524) can0 202#909E000000000000
(1608055974.340154) can0 4ED#00040003FF9E0000
(1608055974.340622) can0 201#9062000000000000
(1608055974.341031) can0 202#909E000000000000
(1608055974.341676) can0 0C0#022DBC0000000000
(1608055974.342183) can0 201#9062000000000000
(1608055974.342613) can0 182#4A7F4D02
(1608055974.343445) can0 0C0#0113881387138A32
(1608055974.343977) can0 202#909E000000000000
(1608055974.344669) can0 4EC#003EFFF2008E0000
(1608055974.345119) can0 182#A8FEFF07
(1608055974.345584) can0 0C0#0001910191019104
(1608055974.346060) can0 201#9062000000000000
(1608055974.346508) can0 4ED#00040002FF9E0000
(1608055974.347007) can0 0D0#150309030900006B
(1608055974.347504) can0 202#909E000000000000
(1608055974.347956) can0 181#A8090007
(1608055974.348600) can0 182#5F020008
(1608055974.349101) can0 0D0#080000000000006B
(1608055974.349555) can0 201#9062000000000000
(1608055974.350029) can0 0D0#0700000000000000
(1608055974.350476) can0 202#909E000000000000
(1608055974.350855) can0 4EC#004AFFF600910000
(1608055974.351375) can0 181#5FFEFF08
(1608055974.352000) can0 182#495D2901
(1608055974.352446) can0 0D0#060000000000006B
(1608055974.353086) can0 201#9062000000000000
(1608055974.353889) can0 181#499C7F01
(1608055974.354480) can0 4ED#00040003FF9E0000
(1608055974.354968) can0 202#909E000000000000
(1608055974.355463) can0 182#EB643503
(1608055974.355962) can0 201#9062000000000000
(1608055974.356597) can0 181#EB663503
(1608055974.357010) can0 202#909E000000000000
(1608055974.357345) can0 182#8A0E0004
(1608055974.357674) can0 4EC#0043FFEE009A0000
(1608055974.357977) can0 201#9062000000000000
(1608055974.358252) can0 181#8AF6FF04
(1608055974.358588) can0 202#909E000000000000
(1608055974.359105) can0 4ED#00040003FF9E0000
(1608055974.359498) can0 182#F6000005
(1608055974.359901) can0 201#9062000000000000
(1608055974.360306) can0 181#F6000005
(1608055974.360884) can0 202#909E000000000000
(1608055974.361479) can0 182#A07A0006
(1608055974.361887) can0 201#9062000000000000
(1608055974.362273) can0 0B0#0101600500000000
(1608055974.362695) can0 4EC#004AFFE6009F0000
(1608055974.363329) can0 181#A0510006
(1608055974.363816) can0 202#909E000000000000
(1608055974.364208) can0 0B0#02640105CD010060
(1608055974.364694) can0 4ED#00040003FF9E0000
(1608055974.365073) can0 201#9062000000000000
(1608055974.365400) can0 202#909E000000000000
(1608055974.365715) can0 201#9062000000000000
(1608055974.366049) can0 4EC#004EFFE100970000
(1608055974.366455) can0 202#909E000000000000
(1608055974.366814) can0 0C0#022DC90000000000
(1608055974.367293) can0 201#9062000000000000
(1608055974.367654) can0 4ED#00040003FF9E0000
(1608055974.367995) can0 0C0#0113851388138A32
(1608055974.368382) can0 202#909E000000000000
(1608055974.368728) can0 0C0#0001900191019104
(1608055974.369053) can0 201#9062000000000000
(1608055974.369433) can0 0D0#150309030900006B
(1608055974.369802) can0 202#909E000000000000
(1608055974.370167) can0 4EC#004DFFE700900000
(1608055974.370517) can0 0D0#080000000000006B
(1608055974.370859) can0 201#9062000000000000
(1608055974.371299) can0 4ED#00040003FF9E0000
(1608055974.371666) can0 0D0#0700000000000000
(1608055974.372024) can0 202#909E000000000000
(1608055974.372437) can0 0D0#060000000000006B
(1608055974.372784) can0 201#9062000000000000
(1608055974.373122) can0 202#909E000000000000
(1608055974.373495) can0 4EC#003BFFE8008B0000
(1608055974.373878) can0 201#9062000000000000
(1608055974.374346) can0 202#909E000000000000
(1608055974.374785) can0 4ED#00040003FF9E0000
(1608055974.375286) can0 201#9062000000000000
(1608055974.375710) can0 202#909E000000000000
(1608055974.376124) can0 201#9062000000000000
(1608055974.376559) can0 4EC#0041FFE300950000
(1608055974.377445) can0 202#909E000000000000
(1608055974.377853) can0 4ED#00040003FF9E0000
(1608055974.378183) can0 201#9062000000000000
(1608055974.378520) can0 202#909E000000000000
(1608055974.378811) can0 0AA#0500070000
(1608055974.379224) can0 0AA#014207B69DC99A2D
(1608055974.379631) can0 201#9062000000000000
(1608055974.380388) can0 4EC#004AFFD900960000
(1608055974.380841) can0 202#909E000000000000
(1608055974.381219) can0 4ED#00040002FF9E0000
(1608055974.381563) can0 201#9062000000000000
(1608055974.381926) can0 202#909E000000000000
(1608055974.382290) can0 0B0#01025F0500000000
(1608055974.382635) can0 0C0#022DFD0000000000
(1608055974.382993) can0 201#9062000000000000
(1608055974.383350) can0 0B0#02640105F501006E
(1608055974.383682) can0 0C0#01138B1388138A32
(1608055974.383986) can0 202#909E000000000000
(1608055974.384355) can0 4EC#004AFFE400970000
(1608055974.384681) can0 0C0#0001900191019004
(1608055974.384991) can0 201#90C4000000000000
(1608055974.385382) can0 4ED#00040002FF9E0000
(1608055974.385707) can0 0D0#150309030900006B
(1608055974.386008) can0 202#903C000000000000
(1608055974.386333) can0 0D0#080000000000006B
(1608055974.386665) can0 201#90C4000000000000
(1608055974.387038) can0 0D0#0700000000000000
(1608055974.387409) can0 202#903C000000000000
(1608055974.387739) can0 4EC#0040FFE8009A0000
(1608055974.388061) can0 0D0#060000000000006B
(1608055974.388382) can0 201#90C4000000000000
(1608055974.388689) can0 4ED#00040003FF9E0000
(1608055974.388979) can0 202#903C000000000000
(1608055974.389256) can0 201#90C4000000000000
(1608055974.389573) can0 202#903C000000000000
(1608055974.389879) can0 201#90C4000000000000
(1608055974.390180) can0 4EC#0041FFE400990000
(1608055974.390501) can0 202#903C000000000000
(1608055974.391102) can0 4ED#00040003FF9E0000
(1608055974.391494) can0 181#4AFE4E02
(1608055974.391793) can0 182#A8000007
(1608055974.392094) can0 201#90C4000000000000
(1608055974.392514) can0 202#903C000000000000
(1608055974.393066) can0 181#A8FEFF07
(1608055974.393552) can0 201#90C4000000000000
(1608055974.394252) can0 4EC#003DFFEC00950000
(1608055974.394616) can0 202#903C000000000000
(1608055974.395484) can0 4ED#00040003FF9E0000
(1608055974.396265) can0 201#90C4000000000000
(1608055974.396639) can0 202#903C000000000000
(1608055974.397535) can0 201#90C4000000000000
(1608055974.398487) can0 202#903C000000000000
(1608055974.398831) can0 4EC#0039FFEA009A0000
(1608055974.399489) can0 0C0#022DA20000000000
(1608055974.399868) can0 201#90C4000000000000
(1608055974.400214) can0 4ED#00040002FF9E0000
(1608055974.400554) can0 0C0#0113881387138532
(1608055974.400859) can0 202#903C000000000000
(1608055974.401439) can0 0C0#0001900193018F04
(1608055974.401753) can0 201#90C4000000000000
(1608055974.402443) can0 0D0#150309030900006B
(1608055974.402774) can0 202#903C000000000000
(1608055974.403261) can0 4EC#0039FFED008C0000
(1608055974.403641) can0 0D0#080000000000006B
(1608055974.403963) can0 201#90C4000000000000
(1608055974.404319) can0 0B0#0102600500000000
(1608055974.404687) can0 4ED#00040003FF9E0000
(1608055974.405009) can0 0D0#0700000000000000
(1608055974.405374) can0 0B0#0264020503010060
(1608055974.405711) can0 202#903C000000000000
(1608055974.406014) can0 0D0#060000000000006B
(1608055974.406299) can0 201#90C4000000000000
(1608055974.406604) can0 202#903C000000000000
(1608055974.407611) can0 201#90C4000000000000
(1608055974.407949) can0 4EC#0044FFEF00880000
(1608055974.408526) can0 202#903C000000000000
(1608055974.408866) can0 4ED#00040002FF9E0000
(1608055974.409528) can0 201#90C4000000000000
(1608055974.410496) can0 202#903C000000000000
(1608055974.411609) can0 201#90C4000000000000
(1608055974.412117) can0 4EC#0049FFE9008E0000
(1608055974.412495) can0 202#903C000000000000
(1608055974.413332) can0 4ED#00040003FF9E0000
(1608055974.413672) can0 201#90C4000000000000
(1608055974.414510) can0 202#903C000000000000
(1608055974.414869) can0 0AA#0500070000
(1608055974.415308) can0 0AA#014208939DD29A3E
(1608055974.415657) can0 201#90C4000000000000
(1608055974.416535) can0 202#903C000000000000
(1608055974.416867) can0 4EC#0046FFE0008C0000
(1608055974.417568) can0 201#90C4000000000000
(1608055974.417909) can0 4ED#00040003FF9E0000
(1608055974.418509) can0 202#903C000000000000
(1608055974.419454) can0 0C0#022DD60000000000
(1608055974.419795) can0 201#90C4000000000000
(1608055974.420441) can0 0C0#0113881388138932
(1608055974.420799) can0 202#903C000000000000
(1608055974.421163) can0 4EC#0043FFE900970000
(1608055974.421520) can0 0C0#0001930191019104
(1608055974.421841) can0 201#90C4000000000000
(1608055974.422300) can0 4ED#00040002FF9E0000
(1608055974.422651) can0 0D0#150309030900006B
(1608055974.423028) can0 202#903C000000000000
(1608055974.423484) can0 0D0#080000000000006B
(1608055974.423815) can0 201#90C4000000000000
(1608055974.424459) can0 0D0#0700000000000000
(1608055974.424795) can0 202#903C000000000000
(1608055974.425118) can0 0FF#99003E4400000000
(1608055974.425484) can0 0D0#060000000000006B
(1608055974.425814) can0 201#90C4000000000000
(1608055974.426120) can0 4EC#0047FFE700950000
(1608055974.426566) can0 202#903C000000000000
(1608055974.426964) can0 4ED#00040002FF9E0000
(1608055974.427583) can0 201#90C4000000000000
(1608055974.428511) can0 202#903C000000000000
(1608055974.428837) can0 0B0#0100600500000000
(1608055974.429559) can0 201#90C4000000000000
(1608055974.429904) can0 0B0#02640105F50100A4
(1608055974.430234) can0 4EC#0041FFEE008E0000
(1608055974.430554) can0 202#903C000000000000
(1608055974.431291) can0 4ED#00040003FF9E0000
(1608055974.431649) can0 201#9000000000000000
(1608055974.432500) can0 202#9000000000000000
(1608055974.433528) can0 201#9000000000000000
(1608055974.434473) can0 4EC#0044FFE700870000
(1608055974.434815) can0 202#9000000000000000
(1608055974.435605) can0 201#9000000000000000
(1608055974.435949) can0 4ED#00040002FF9E0000
(1608055974.436517) can0 202#9000000000000000
(1608055974.437557) can0 201#9000000000000000
(1608055974.438552) can0 202#9000000000000000
(1608055974.438988) can0 4EC#0049FFE400880000
(1608055974.439492) can0 0C0#022DD60000000000
(1608055974.439838) can0 201#9000000000000000
(1608055974.440199) can0 4ED#00040003FF9E0000
(1608055974.440545) can0 182#4A864D02
(1608055974.440868) can0 202#9000000000000000
(1608055974.441209) can0 0C0#011388138B139032
(1608055974.441557) can0 182#A8000007
(1608055974.441888) can0 0C0#0001900194019004
(1608055974.442218) can0 201#9000000000000000
(1608055974.442553) can0 0D0#150309030900006B
(1608055974.442945) can0 202#9000000000000000
(1608055974.443368) can0 181#A8030007
(1608055974.443696) can0 182#5F000008
(1608055974.444010) can0 0D0#080000000000006B
(1608055974.444347) can0 201#9000000000000000
(1608055974.444692) can0 4EC#0045FFE600880000
(1608055974.445057) can0 0D0#0700000000000000
(1608055974.445419) can0 202#9000000000000000
(1608055974.445752) can0 4ED#00040003FF9E0000
(1608055974.446075) can0 181#5FFFFF08
(1608055974.446381) can0 182#495D2901
(1608055974.446695) can0 0D0#060000000000006B
(1608055974.447085) can0 201#9000000000000000
(1608055974.447423) can0 181#499C7F01
(1608055974.447773) can0 202#9000000000000000
(1608055974.448086) can0 182#EB153503
(1608055974.448424) can0 201#9000000000000000
(1608055974.448753) can0 4EC#0044FFE600910000
(1608055974.449058) can0 181#EBF33503
(1608055974.449403) can0 202#9000000000000000
(1608055974.449737) can0 4ED#00040002FF9E0000
(1608055974.450046) can0 182#8AFBFF04
(1608055974.450372) can0 201#9000000000000000
(1608055974.450657) can0 181#8AF7FF04
(1608055974.451033) can0 202#9000000000000000
(1608055974.451367) can0 182#F6000005
(1608055974.451696) can0 201#9000000000000000
(1608055974.452003) can0 181#F6000005
(1608055974.452362) can0 4EC#0045FFE800910000
(1608055974.452693) can0 202#9000000000000000
(1608055974.453135) can0 182#A0000006
(1608055974.453566) can0 201#9000000000000000
(1608055974.453939) can0 0B0#0101600500000000
(1608055974.454296) can0 4ED#00040002FF9E0000
(1608055974.454634) can0 181#A0000006
(1608055974.455058) can0 202#9000000000000000
(1608055974.455419) can0 0B0#02640105F501006E
(1608055974.455730) can0 0AA#0500070000
(1608055974.456047) can0 0AA#01421A379DD49A2C
(1608055974.456366) can0 201#9062000000000000
(1608055974.456712) can0 202#909E000000000000
(1608055974.457060) can0 4EC#003BFFED00940000
(1608055974.457640) can0 201#9062000000000000
(1608055974.458145) can0 4ED#00040003FF9E0000
(1608055974.458553) can0 202#909E000000000000
(1608055974.459604) can0 0C0#022DAF0000000000
(1608055974.459996) can0 201#9062000000000000
(1608055974.460582) can0 0C0#0113881386138B32
(1608055974.460959) can0 202#909E000000000000
(1608055974.461351) can0 4EC#003BFFEA00940000
(1608055974.461706) can0 0C0#0001900191019204
(1608055974.462039) can0 201#9062000000000000
(1608055974.462559) can0 0D0#150309030900006B
(1608055974.463119) can0 202#909E000000000000
(1608055974.463618) can0 4ED#00040002FF9E0000
(1608055974.464008) can0 0D0#080000000000006B
(1608055974.464467) can0 201#9062000000000000
(1608055974.464843) can0 0D0#0700000000000000
(1608055974.465211) can0 202#909E000000000000
(1608055974.465657) can0 0D0#060000000000006B
(1608055974.466107) can0 201#9062000000000000
(1608055974.466520) can0 4EC#0034FFEC008E0000
(1608055974.467020) can0 202#909E000000000000
(1608055974.467483) can0 4ED#00040003FF9D0000
(1608055974.467932) can0 201#9062000000000000
(1608055974.468703) can0 202#909E000000000000
(1608055974.469833) can0 201#9062000000000000
(1608055974.470386) can0 4EC#0032FFE700930000
(1608055974.470786) can0 202#909E000000000000
(1608055974.471711) can0 4ED#00040002FF9E0000
(1608055974.472188) can0 201#9062000000000000
(1608055974.472782) can0 202#909E000000000000
(1608055974.473639) can0 201#9062000000000000
(1608055974.474633) can0 202#909E000000000000
(1608055974.475049) can0 4EC#0042FFE6008F0000
(1608055974.475692) can0 201#9062000000000000
(1608055974.476058) can0 4ED#00040003FF9E0000
(1608055974.476543) can0 202#909E000000000000
(1608055974.477642) can0 201#9062000000000000
(1608055974.478594) can0 202#909E000000000000
(1608055974.479146) can0 0B0#0101600500000000
(1608055974.479617) can0 4EC#0041FFE7008E0000
(1608055974.479958) can0 0C0#022DBC0000000000
(1608055974.480417) can0 201#9062000000000000
(1608055974.481126) can0 0B0#02640105E801007B
(1608055974.481622) can0 4ED#00040003FF9E0000
(1608055974.481961) can0 0C0#0113861387138D32
(1608055974.482394) can0 202#909E000000000000
(1608055974.482740) can0 201#9062000000000000
(1608055974.483133) can0 0C0#0001920193019204
(1608055974.483643) can0 0D0#150309030900006B
(1608055974.483978) can0 202#909E000000000000
(1608055974.484411) can0 0D0#080000000000006B
(1608055974.484831) can0 201#9062000000000000
(1608055974.485273) can0 4EC#004AFFE9008E0000
(1608055974.485647) can0 0D0#0700000000000000
(1608055974.485950) can0 202#909E000000000000
(1608055974.486295) can0 4ED#00040003FF9E0000
(1608055974.486614) can0 0D0#060000000000006B
(1608055974.486964) can0 201#9062000000000000
(1608055974.487247) can0 202#909E000000000000
(1608055974.487614) can0 201#9062000000000000
(1608055974.488171) can0 4EC#004CFFE400900000
(1608055974.488566) can0 202#909E000000000000
(1608055974.489436) can0 4ED#00040003FF9E0000
(1608055974.489769) can0 201#9062000000000000
(1608055974.490540) can0 202#909E000000000000
(1608055974.491091) can0 181#4A044F02
(1608055974.491526) can0 182#A8040007
(1608055974.491859) can0 201#9062000000000000
(1608055974.492587) can0 202#909E000000000000
(1608055974.492994) can0 4EC#004AFFDE00910000
(1608055974.493372) can0 181#A8F8FF07
(1608055974.493775) can0 201#9062000000000000
(1608055974.494105) can0 4ED#00040003FF9E0000
(1608055974.494539) can0 202#909E000000000000
(1608055974.495601) can0 201#9062000000000000
(1608055974.496514) can0 202#909E000000000000
(1608055974.497105) can0 4EC#0043FFE9008F0000
(1608055974.497556) can0 201#9062000000000000
(1608055974.498367) can0 4ED#00040003FF9E0000
(1608055974.498702) can0 202#909E000000000000
(1608055974.499645) can0 201#9062000000000000
(1608055974.499991) can0 0C0#022DD60000000000
(1608055974.500503) can0 0C0#0113881388138A32
(1608055974.500835) can0 202#909E000000000000
(1608055974.501544) can0 0C0#0001910191019004
(1608055974.501886) can0 201#9062000000000000
(1608055974.502298) can0 4EC#0044FFEA008D0000
(1608055974.502734) can0 0D0#150309030900006B
(1608055974.503244) can0 202#909E000000000000
(1608055974.503682) can0 4ED#00040003FF9E0000
(1608055974.504018) can0 0D0#080000000000006B
(1608055974.504481) can0 201#9062000000000000
(1608055974.504833) can0 0B0#0102600500000000
(1608055974.505237) can0 0D0#0700000000000000
(1608055974.505589) can0 0B0#02640105E8010053
(1608055974.505988) can0 202#909E000000000000
(1608055974.506413) can0 0D0#060000000000006B
(1608055974.506744) can0 201#90C4000000000000
(1608055974.507290) can0 4EC#004DFFE600950000
(1608055974.507683) can0 202#903C000000000000
(1608055974.508011) can0 4ED#00040003FF9E0000
(1608055974.508366) can0 201#90C4000000000000
(1608055974.508673) can0 202#903C000000000000
(1608055974.509553) can0 201#90C4000000000000
(1608055974.510584) can0 202#903C000000000000
(1608055974.510967) can0 4EC#0050FFE700970000
(1608055974.511665) can0 201#90C4000000000000
(1608055974.511997) can0 4ED#00040003FF9E0000
(1608055974.512614) can0 202#903C000000000000
(1608055974.512952) can0 0AA#0A039D0422026F
(1608055974.513573) can0 201#90C4000000000000
(1608055974.514551) can0 202#903C000000000000
(1608055974.515114) can0 4EC#0041FFE200940000
(1608055974.515625) can0 201#90C4000000000000
(1608055974.516335) can0 4ED#00040003FF9E0000
(1608055974.516722) can0 202#903C000000000000
(1608055974.517694) can0 201#90C4000000000000
(1608055974.518586) can0 202#903C000000000000
(1608055974.519589) can0 0C0#022E580000000000
(1608055974.519955) can0 201#90C4000000000000
(1608055974.520499) can0 4EC#004FFFE200920000
(1608055974.520926) can0 0C0#01138B1385138D32
(1608055974.521407) can0 202#903C000000000000
(1608055974.521840) can0 4ED#00040003FF9E0000
(1608055974.522236) can0 0C0#0001910192019004
(1608055974.522580) can0 201#90C4000000000000
(1608055974.522951) can0 0D0#150309030900006B
(1608055974.523358) can0 202#903C000000000000
(1608055974.523816) can0 0D0#080000000000006B
(1608055974.524292) can0 201#90C4000000000000
(1608055974.524666) can0 4EC#0052FFE700930000
(1608055974.525060) can0 0AA#0500060000
(1608055974.525534) can0 0AA#014211149DDA9A2C
(1608055974.525880) can0 0D0#0700000000000000
(1608055974.526195) can0 202#903C000000000000
(1608055974.526587) can0 4ED#00040003FF9E0000
(1608055974.526934) can0 0D0#060000000000006B
(1608055974.527216) can0 201#90C4000000000000
(1608055974.527581) can0 202#903C000000000000
(1608055974.527880) can0 201#90C4000000000000
(1608055974.528545) can0 4EC#0043FFEC00920000
(1608055974.528876) can0 0B0#01015F0500000000
(1608055974.529183) can0 202#903C000000000000
(1608055974.529675) can0 201#90C4000000000000
(1608055974.530022) can0 0B0#02640105DA010060
(1608055974.530418) can0 4ED#00040003FF9E0000
(1608055974.530743) can0 202#903C000000000000
(1608055974.531591) can0 201#9062000000000000
(1608055974.532530) can0 202#909E000000000000
(1608055974.532928) can0 4EC#0045FFED00960000
(1608055974.533569) can0 201#9062000000000000
(1608055974.534122) can0 4ED#00040003FF9E0000
(1608055974.534544) can0 202#909E000000000000
(1608055974.535608) can0 201#9062000000000000
(1608055974.537271) can0 0AA#0500070000
(1608055974.537690) can0 0AA#0142094F9DDA9A34
(1608055974.537987) can0 202#3DD8
(1608055974.538379) can0 202#909E000000000000
(1608055974.538713) can0 4EC#0047FFE400960000
(1608055974.539085) can0 201#9062000000000000
(1608055974.539510) can0 202#909E000000000000
(1608055974.539908) can0 4ED#00040003FF9E0000
(1608055974.540369) can0 0C0#022DBC0000000000
(1608055974.540746) can0 201#9062000000000000
(1608055974.541197) can0 182#4A904D02
(1608055974.541644) can0 0C0#01138D1385138832
(1608055974.542003) can0 202#909E000000000000
(1608055974.542425) can0 182#A8FDFF07
(1608055974.542970) can0 0C0#0001910192018F04
(1608055974.543485) can0 201#9062000000000000
(1608055974.543837) can0 4EC#003CFFF200900000
(1608055974.544255) can0 0D0#150309030900006B
(1608055974.544726) can0 202#909E000000000000
(1608055974.545065) can0 181#A8080007
(1608055974.545496) can0 182#5F030008
(1608055974.545905) can0 4ED#00040003FF9E0000
(1608055974.546380) can0 0D0#080000000000006B
(1608055974.546795) can0 201#9062000000000000
(1608055974.547206) can0 0D0#0700000000000000
(1608055974.547749) can0 202#909E000000000000
(1608055974.548085) can0 181#5FFFFF08
(1608055974.548480) can0 182#495D2901
(1608055974.548897) can0 0D0#060000000000006B
(1608055974.549282) can0 201#9062000000000000
(1608055974.549654) can0 181#499D7F01
(1608055974.549994) can0 4EC#003CFFEC00910000
(1608055974.550354) can0 202#909E000000000000
(1608055974.550774) can0 182#EB833503
(1608055974.551220) can0 4ED#00040003FF9E0000
(1608055974.551773) can0 201#9062000000000000
(1608055974.552130) can0 181#EB813603
(1608055974.552553) can0 202#909E000000000000
(1608055974.552935) can0 182#8A120004
(1608055974.553357) can0 201#9062000000000000
(1608055974.553742) can0 181#8AF9FF04
(1608055974.554078) can0 202#909E000000000000
(1608055974.554515) can0 4EC#0030FFE5008B0000
(1608055974.554825) can0 182#F6000005
(1608055974.555371) can0 201#9062000000000000
(1608055974.555696) can0 181#F6000005
(1608055974.555983) can0 4ED#00040003FF9E0000
(1608055974.556395) can0 202#909E000000000000
(1608055974.556719) can0 182#A07A0006
(1608055974.557065) can0 201#9062000000000000
(1608055974.557549) can0 0B0#0102600500000000
(1608055974.557896) can0 181#A0510006
(1608055974.558240) can0 202#909E000000000000
(1608055974.558670) can0 0B0#02640105E8010060
(1608055974.559063) can0 4EC#003BFFEB00950000
(1608055974.559456) can0 201#90C4000000000000
(1608055974.559808) can0 4ED#00040003FF9E0000
(1608055974.560124) can0 202#903C000000000000
(1608055974.560465) can0 201#90C4000000000000
(1608055974.560810) can0 202#903C000000000000
(1608055974.561145) can0 0C0#022DD60000000000
(1608055974.561478) can0 201#90C4000000000000
(1608055974.561798) can0 4EC#0044FFE500940000
(1608055974.562101) can0 0C0#0113871389138E32
(1608055974.562449) can0 202#903C000000000000
(1608055974.562943) can0 4ED#00040003FF9E0000
(1608055974.563776) can0 0C0#0001920190019104
(1608055974.564266) can0 201#90C4000000000000
(1608055974.564655) can0 0D0#150309030900006B
(1608055974.565042) can0 202#903C000000000000
(1608055974.565454) can0 0D0#080000000000006B
(1608055974.565809) can0 201#90C4000000000000
(1608055974.566155) can0 4EC#0044FFDF008B0000
(1608055974.566543) can0 0D0#0700000000000000
(1608055974.567034) can0 202#903C000000000000
(1608055974.567429) can0 4ED#00040003FF9E0000
(1608055974.567787) can0 0D0#060000000000006B
(1608055974.568125) can0 201#90C4000000000000
(1608055974.568488) can0 202#903C000000000000
(1608055974.568862) can0 201#90C4000000000000
(1608055974.569253) can0 202#903C000000000000
(1608055974.569608) can0 4EC#0043FFDD008B0000
(1608055974.569953) can0 201#90C4000000000000
(1608055974.570306) can0 4ED#00040003FF9E0000
(1608055974.570665) can0 202#903C000000000000
(1608055974.571822) can0 201#90C4000000000000
(1608055974.572631) can0 202#903C000000000000
(1608055974.573581) can0 4EC#0050FFE200880000
(1608055974.573982) can0 201#90C4000000000000
(1608055974.574439) can0 4ED#00040003FF9E0000
(1608055974.574785) can0 202#903C000000000000
(1608055974.575250) can0 0AA#0500030000
(1608055974.575699) can0 0AA#0142086E9DD89A3A
(1608055974.576047) can0 201#90C4000000000000
(1608055974.576527) can0 202#903C000000000000
(1608055974.576853) can0 0FF#98003E4300000000
(1608055974.577552) can0 201#90C4000000000000
(1608055974.577874) can0 4EC#0045FFE100820000
(1608055974.578697) can0 202#903C000000000000
(1608055974.579621) can0 0B0#0102600500000000
(1608055974.580016) can0 4ED#00040002FF9E0000
(1608055974.580375) can0 0C0#022DBC0000000000
(1608055974.580702) can0 201#90C4000000000000
(1608055974.581001) can0 0B0#02640105BF010053
(1608055974.581333) can0 0C0#0113861388138B32
(1608055974.581640) can0 202#903C000000000000
(1608055974.581962) can0 0C0#0001900191018F04
(1608055974.582307) can0 201#90C4000000000000
(1608055974.582628) can0 4EC#0052FFE0008B0000
(1608055974.583011) can0 0D0#150309030900006B
(1608055974.583428) can0 202#903C000000000000
(1608055974.583766) can0 4ED#00040002FF9E0000
(1608055974.584086) can0 0D0#080000000000006B
(1608055974.584410) can0 201#90C4000000000000
(1608055974.584728) can0 0D0#0700000000000000
(1608055974.585023) can0 202#903C000000000000
(1608055974.585444) can0 0D0#060000000000006B
(1608055974.585763) can0 201#90C4000000000000
(1608055974.586518) can0 202#903C000000000000
(1608055974.586853) can0 4EC#0054FFEB008D0000
(1608055974.587580) can0 201#90C4000000000000
(1608055974.587931) can0 4ED#00040002FF9E0000
(1608055974.588515) can0 202#903C000000000000
(1608055974.589558) can0 201#90C4000000000000
(1608055974.590537) can0 202#903C000000000000
(1608055974.590961) can0 181#4AFF4E02
(1608055974.591328) can0 182#A8000007
(1608055974.591671) can0 4EC#004FFFE6008E0000
(1608055974.592057) can0 201#90C4000000000000
(1608055974.592416) can0 4ED#00040002FF9E0000
(1608055974.592767) can0 202#903C000000000000
(1608055974.593057) can0 181#A8000007
(1608055974.593527) can0 201#90C4000000000000
(1608055974.594496) can0 202#903C000000000000
(1608055974.595593) can0 4EC#0046FFEC00950000
(1608055974.595936) can0 201#90C4000000000000
(1608055974.596534) can0 202#903C000000000000
(1608055974.596875) can0 4ED#00040002FF9D0000
(1608055974.597544) can0 201#90C4000000000000
(1608055974.598522) can0 202#903C000000000000
(1608055974.599473) can0 0C0#022DAF0000000000
(1608055974.599837) can0 201#90C4000000000000
(1608055974.600205) can0 4EC#0046FFE900990000
(1608055974.600553) can0 0C0#0113861388138D32
(1608055974.600868) can0 202#903C000000000000
(1608055974.601201) can0 4ED#00040002FF9D0000
(1608055974.601555) can0 0C0#0001900191018F04
(1608055974.601866) can0 201#90C4000000000000
(1608055974.602451) can0 0D0#150309030900006B
(1608055974.602840) can0 202#903C000000000000
(1608055974.603537) can0 0D0#080000000000006B
(1608055974.603947) can0 201#90C4000000000000
(1608055974.604403) can0 0B0#0101600500000000
(1608055974.604846) can0 0D0#0700077D00000001
(1608055974.605259) can0 0B0#02640105E8010053
(1608055974.605678) can0 202#903C000000000000
(1608055974.606060) can0 4EC#0042FFEC00940000
(1608055974.606456) can0 0D0#060000000000006B
(1608055974.606846) can0 201#9062000000000000
(1608055974.607249) can0 4ED#00040002FF9D0000
(1608055974.607619) can0 202#909E000000000000
(1608055974.607945) can0 201#9062000000000000
(1608055974.608495) can0 202#909E000000000000
(1608055974.608947) can0 4EC#004AFFE900990000
(1608055974.609547) can0 201#9062000000000000
(1608055974.610149) can0 4ED#00040003FF9E0000
(1608055974.610572) can0 202#909E000000000000
(1608055974.611638) can0 201#9062000000000000
(1608055974.612538) can0 202#909E000000000000
(1608055974.613443) can0 4EC#004AFFEA00960000
(1608055974.613843) can0 201#9062000000000000
(1608055974.614532) can0 202#909E000000000000
(1608055974.615016) can0 4ED#00040002FF9E0000
(1608055974.615467) can0 0AA#0500040000
(1608055974.615877) can0 0AA#014208609DD29A34
(1608055974.616225) can0 201#9062000000000000
(1608055974.616606) can0 202#909E000000000000
(1608055974.617582) can0 201#9062000000000000
(1608055974.617985) can0 4EC#003EFFF100910000
(1608055974.618539) can0 202#909E000000000000
(1608055974.619211) can0 4ED#00040002FF9D0000
(1608055974.619667) can0 0C0#022DAF0000000000
(1608055974.620076) can0 201#9062000000000000
(1608055974.620467) can0 0C0#0113891389138A32
(1608055974.620856) can0 202#909E000000000000
(1608055974.621456) can0 0C0#0001910192019104
(1608055974.621846) can0 201#9062000000000000
(1608055974.622418) can0 4EC#003EFFE400910000
(1608055974.622830) can0 0D0#150309030900006B
(1608055974.623391) can0 202#909E000000000000
(1608055974.623822) can0 0D0#080000000000006B
(1608055974.624200) can0 201#9062000000000000
(1608055974.624645) can0 4ED#00040002FF9D0000
(1608055974.625013) can0 0D0#0700000000000000
(1608055974.625424) can0 202#909E000000000000
(1608055974.625794) can0 0D0#060000000000006B
(1608055974.626142) can0 201#9062000000000000
(1608055974.626553) can0 202#909E000000000000
(1608055974.626987) can0 4EC#003FFFEF00970000
(1608055974.627594) can0 201#9062000000000000
(1608055974.628065) can0 4ED#00040002FF9E0000
(1608055974.628525) can0 202#909E000000000000
(1608055974.628869) can0 0B0#0102600500000000
(1608055974.629558) can0 201#9062000000000000
(1608055974.629891) can0 0B0#02640105F5010060
(1608055974.630507) can0 202#909E000000000000
(1608055974.631342) can0 4EC#0046FFF400950000
(1608055974.631678) can0 201#90C4000000000000
(1608055974.632522) can0 202#903C000000000000
(1608055974.632847) can0 4ED#00040003FF9E0000
(1608055974.633549) can0 201#90C4000000000000
(1608055974.634538) can0 202#903C000000000000
(1608055974.635573) can0 201#90C4000000000000
(1608055974.635922) can0 4EC#004EFFE6009A0000
(1608055974.636514) can0 202#903C000000000000
(1608055974.636994) can0 4ED#00040003FF9E0000
(1608055974.637553) can0 201#90C4000000000000
(1608055974.638545) can0 202#903C000000000000
(1608055974.639463) can0 0C0#022DFD0000000000
(1608055974.639830) can0 201#90C4000000000000
(1608055974.640162) can0 182#4A854D02
(1608055974.640527) can0 4EC#0045FFEB00940000
(1608055974.640881) can0 0C0#0113881387138B32
(1608055974.641237) can0 202#903C000000000000
(1608055974.641598) can0 182#A8050007
(1608055974.641953) can0 0C0#0001910191018F04
(1608055974.642316) can0 4ED#00040002FF9E0000
(1608055974.642670) can0 201#90C4000000000000
(1608055974.643088) can0 0D0#150309030900006B
(1608055974.643455) can0 202#903C000000000000
(1608055974.643781) can0 181#A8FEFF07
(1608055974.644088) can0 182#5F020008
(1608055974.644438) can0 0D0#080000000000006B
(1608055974.644788) can0 201#90C4000000000000
(1608055974.645126) can0 0D0#0700077D00000001
(1608055974.645492) can0 202#903C000000000000
(1608055974.645847) can0 4EC#0043FFF100970000
(1608055974.646163) can0 181#5F030008
(1608055974.646485) can0 182#495D2901
(1608055974.646816) can0 0D0#060000000000006B
(1608055974.647187) can0 201#90C4000000000000
(1608055974.647514) can0 181#499F7F01
(1608055974.647853) can0 4ED#00050003FF9D0000
(1608055974.648632) can0 202#903C000000000000
(1608055974.649003) can0 182#EB153503
(1608055974.649376) can0 201#90C4000000000000
(1608055974.649720) can0 181#EB033603
(1608055974.650043) can0 202#903C000000000000
(1608055974.650365) can0 182#8AF8FF04
(1608055974.650702) can0 4EC#003EFFEE008D0000
(1608055974.651078) can0 201#90C4000000000000
(1608055974.651403) can0 181#8A110004
(1608055974.651735) can0 4ED#00040003FF9E0000
(1608055974.652052) can0 202#903C000000000000
(1608055974.652338) can0 182#F6000005
(1608055974.652669) can0 201#90C4000000000000
(1608055974.652961) can0 181#F6000005
(1608055974.653257) can0 202#903C000000000000
(1608055974.653586) can0 182#A0280006
(1608055974.653907) can0 201#90C4000000000000
(1608055974.654234) can0 0B0#0101600500000000
(1608055974.654562) can0 181#A0A30006
(1608055974.654952) can0 4EC#0046FFF1008B0000
(1608055974.655380) can0 202#903C000000000000
(1608055974.655724) can0 0B0#02640105CD010060
(1608055974.656035) can0 4ED#00050003FF9E0000
(1608055974.656318) can0 0AA#0500040000
(1608055974.656638) can0 0AA#0142086E9DD49A3A
(1608055974.656930) can0 201#9062000000000000
(1608055974.657205) can0 202#909E000000000000
(1608055974.657537) can0 201#9062000000000000
(1608055974.658330) can0 4EC#0044FFEE008D0000
(1608055974.658776) can0 202#909E000000000000
(1608055974.659603) can0 4ED#00050003FF9E0000
(1608055974.660048) can0 0C0#022DD60000000000
(1608055974.660435) can0 201#9062000000000000
(1608055974.660792) can0 0C0#0113881389138932
(1608055974.661132) can0 202#909E000000000000
(1608055974.661525) can0 0C0#00018F0191019004
(1608055974.661867) can0 201#9062000000000000
(1608055974.662537) can0 0D0#150309030900006B
(1608055974.662994) can0 202#909E000000000000
(1608055974.663415) can0 4EC#0044FFE600940000
(1608055974.663840) can0 0D0#080000000000006B
(1608055974.664281) can0 201#9062000000000000
(1608055974.664667) can0 4ED#00040002FF9E0000
(1608055974.665024) can0 0D0#0700077D00000000
(1608055974.665393) can0 202#909E000000000000
(1608055974.665754) can0 0D0#060000000013006B
(1608055974.666146) can0 201#9062000000000000
(1608055974.666626) can0 202#909E000000000000
(1608055974.667276) can0 4EC#0042FFE100900000
(1608055974.667746) can0 201#9062000000000000
(1608055974.668417) can0 4ED#00040002FF9E0000
(1608055974.668801) can0 202#909E000000000000
(1608055974.669747) can0 201#9062000000000000
(1608055974.670726) can0 202#909E000000000000
(1608055974.671882) can0 201#9062000000000000
(1608055974.672344) can0 4EC#004AFFE300910000
(1608055974.672784) can0 202#909E000000000000
(1608055974.673117) can0 4ED#00040002FF9E0000
(1608055974.673566) can0 201#9062000000000000
(1608055974.674583) can0 202#909E000000000000
(1608055974.675630) can0 201#9062000000000000
(1608055974.676037) can0 4EC#004DFFE100940000
(1608055974.676507) can0 202#909E000000000000
(1608055974.677266) can0 4ED#00040003FF9E0000
(1608055974.677620) can0 201#9062000000000000
(1608055974.678520) can0 202#909E000000000000
(1608055974.678851) can0 0B0#0102600500000000
(1608055974.679484) can0 0C0#022E170000000000
(1608055974.679842) can0 201#9062000000000000
(1608055974.680159) can0 0B0#02640105E8010053
(1608055974.680495) can0 202#909E000000000000
(1608055974.681059) can0 0C0#0113871387138C32
(1608055974.681491) can0 4EC#003EFFDA009A0000
(1608055974.681846) can0 0C0#0001920191019004
(1608055974.682171) can0 201#90C4000000000000
(1608055974.682529) can0 4ED#00040002FF9E0000
(1608055974.682836) can0 0D0#150309030900006B
(1608055974.683368) can0 202#903C000000000000
(1608055974.683789) can0 0D0#080000000000006B
(1608055974.684109) can0 201#90C4000000000000
(1608055974.684452) can0 0D0#0700000000000000
(1608055974.684789) can0 202#903C000000000000
(1608055974.685122) can0 4EC#003EFFDD009A0000
(1608055974.685471) can0 0D0#060000000000006B
(1608055974.685790) can0 201#90C4000000000000
(1608055974.686226) can0 4ED#00040003FF9E0000
(1608055974.686572) can0 202#903C000000000000
(1608055974.687712) can0 201#90C4000000000000
(1608055974.688542) can0 202#903C000000000000
(1608055974.689482) can0 4EC#003FFFE9008E0000
(1608055974.689884) can0 201#90C4000000000000
(1608055974.690560) can0 202#903C000000000000
(1608055974.691088) can0 4ED#00040003FF9E0000
(1608055974.691567) can0 181#4A014F02
(1608055974.691920) can0 182#A8FFFF07
(1608055974.692224) can0 201#90C4000000000000
(1608055974.692547) can0 202#903C000000000000
(1608055974.692905) can0 181#A8FBFF07
(1608055974.693576) can0 201#90C4000000000000
(1608055974.693912) can0 4EC#0041FFDA008B0000
(1608055974.694515) can0 202#903C000000000000
(1608055974.695235) can0 4ED#00040003FF9E0000
(1608055974.695678) can0 201#90C4000000000000
(1608055974.696522) can0 202#903C000000000000
(1608055974.697547) can0 201#90C4000000000000
(1608055974.698427) can0 4EC#0047FFE200910000
(1608055974.698828) can0 202#903C000000000000
(1608055974.699511) can0 0C0#022DBC0000000000
(1608055974.699928) can0 201#90C4000000000000
(1608055974.700355) can0 4ED#00040003FF9E0000
(1608055974.700765) can0 0C0#011385138C138932
(1608055974.701115) can0 202#903C000000000000
(1608055974.701496) can0 0C0#0001930192019204
(1608055974.701848) can0 201#90C4000000000000
(1608055974.702510) can0 0D0#150309030900006B
(1608055974.702993) can0 202#903C000000000000
(1608055974.703511) can0 4EC#0040FFE900950000
(1608055974.703929) can0 0D0#080000000000006B
(1608055974.704353) can0 201#90C4000000000000
(1608055974.704777) can0 0B0#01015F0500000000
(1608055974.705167) can0 4ED#00040003FF9D0000
(1608055974.705571) can0 202#903C000000000000
(1608055974.705960) can0 0B0#02640105E801006E
(1608055974.706313) can0 0D0#0700000000000000
(1608055974.706690) can0 0D0#060000000000006B
(1608055974.707080) can0 201#9062000000000000
(1608055974.707494) can0 202#909E000000000000
(1608055974.707855) can0 4EC#003DFFE9008B0000
(1608055974.708198) can0 201#9062000000000000
(1608055974.708554) can0 202#909E000000000000
(1608055974.708925) can0 4ED#00040003FF9E0000
(1608055974.709564) can0 201#9062000000000000
(1608055974.710533) can0 202#909E000000000000
(1608055974.711606) can0 201#9062000000000000
(1608055974.712026) can0 4EC#0038FFEF00880000
(1608055974.712527) can0 202#909E000000000000
(1608055974.713081) can0 4ED#00040003FF9E0000
(1608055974.713503) can0 0AA#0A039D0422026F
(1608055974.713890) can0 201#9062000000000000
(1608055974.714521) can0 202#909E000000000000
(1608055974.715580) can0 201#9062000000000000
(1608055974.716320) can0 4EC#0046FFEB008E0000
(1608055974.716663) can0 202#909E000000000000
(1608055974.717559) can0 4ED#00040003FF9E0000
(1608055974.717894) can0 201#9062000000000000
(1608055974.718532) can0 202#909E000000000000
(1608055974.719524) can0 0C0#022DC90000000000
(1608055974.720253) can0 201#9062000000000000
(1608055974.720662) can0 0C0#0113851386138A32
(1608055974.721004) can0 202#909E000000000000
(1608055974.721351) can0 4EC#0050FFE700930000
(1608055974.721683) can0 0C0#0001900192019004
(1608055974.722026) can0 201#9062000000000000
(1608055974.722377) can0 4ED#00040003FF9E0000
(1608055974.722703) can0 0D0#150309030900006B
(1608055974.723088) can0 202#909E000000000000
(1608055974.723433) can0 0D0#080000000000006B
(1608055974.723744) can0 201#9062000000000000
(1608055974.724395) can0 0AA#0500060000
(1608055974.724725) can0 0AA#014211FE9DD79A36
(1608055974.725066) can0 202#909E000000000000
(1608055974.725433) can0 4EC#0052FFE6008E0000
(1608055974.725780) can0 0D0#060000000000006B
(1608055974.726120) can0 201#9062000000000000
(1608055974.726536) can0 4ED#00040002FF9E0000
(1608055974.726961) can0 202#909E000000000000
(1608055974.727622) can0 201#9062000000000000
(1608055974.728543) can0 202#909E000000000000
(1608055974.728889) can0 0B0#0102600500000000
(1608055974.729588) can0 201#9062000000000000
(1608055974.729929) can0 0B0#02640105E801006E
(1608055974.730246) can0 4EC#0051FFE900920000
(1608055974.730582) can0 202#909E000000000000
(1608055974.730982) can0 4ED#00040003FF9E0000
(1608055974.731592) can0 201#90C4000000000000
(1608055974.732502) can0 202#903C000000000000
(1608055974.733540) can0 201#90C4000000000000
(1608055974.734363) can0 4EC#004EFFE100910000
(1608055974.734739) can0 202#903C000000000000
(1608055974.735460) can0 4ED#00040003FF9E0000
(1608055974.735801) can0 201#90C4000000000000
(1608055974.736421) can0 0AA#0500060000
(1608055974.736762) can0 0AA#014208A99DD79A36
(1608055974.737070) can0 202#903C000000000000
(1608055974.737563) can0 201#90C4000000000000
(1608055974.738569) can0 202#903C000000000000
(1608055974.738980) can0 4EC#0041FFDA00970000
(1608055974.739471) can0 0C0#022DC90000000000
(1608055974.739841) can0 201#90C4000000000000
(1608055974.740172) can0 182#4A904D02
(1608055974.740529) can0 4ED#00050003FF9E0000
(1608055974.740864) can0 0C0#01138C138B138A32
(1608055974.741182) can0 202#903C000000000000
(1608055974.741506) can0 182#A8030007
(1608055974.741818) can0 0C0#0001910192018F04
(1608055974.742103) can0 201#90C4000000000000
(1608055974.742460) can0 0D0#150309030900006B
(1608055974.742824) can0 202#903C000000000000
(1608055974.743245) can0 181#A8000007
(1608055974.743573) can0 182#5F020008
(1608055974.743888) can0 4EC#003DFFE600940000
(1608055974.744216) can0 0D0#080000000000006B
(1608055974.744596) can0 201#90C4000000000000
(1608055974.744938) can0 4ED#00040003FF9E0000
(1608055974.745273) can0 0D0#0700000000000000
(1608055974.745625) can0 181#5F030008
(1608055974.745942) can0 202#903C000000000000
(1608055974.746225) can0 182#495D2901
(1608055974.746609) can0 0D0#060000000000006B
(1608055974.746986) can0 201#90C4000000000000
(1608055974.747305) can0 181#49A07F01
(1608055974.747652) can0 202#903C000000000000
(1608055974.747940) can0 182#EB543503
(1608055974.748249) can0 201#90C4000000000000
(1608055974.748578) can0 181#EB693603
(1608055974.748902) can0 4EC#0047FFF5008B0000
(1608055974.749206) can0 202#903C000000000000
(1608055974.749531) can0 182#8AF8FF04
(1608055974.749843) can0 4ED#00040003FF9E0000
(1608055974.750137) can0 201#90C4000000000000
(1608055974.750439) can0 181#8A0C0004
(1608055974.750780) can0 202#903C000000000000
(1608055974.751165) can0 182#F6000005
(1608055974.751555) can0 201#90C4000000000000
(1608055974.751857) can0 181#F6000005
(1608055974.752185) can0 4EC#0042FFEE00950000
(1608055974.752533) can0 202#903C000000000000
(1608055974.752841) can0 182#A0280006
(1608055974.753337) can0 4ED#00040003FF9E0000
(1608055974.753732) can0 201#90C4000000000000
(1608055974.754055) can0 0B0#0102600500000000
(1608055974.754384) can0 181#A0A30006
(1608055974.754723) can0 202#903C000000000000
(1608055974.755096) can0 0B0#02640105E8010045
(1608055974.755556) can0 201#90C4000000000000
(1608055974.756525) can0 202#903C000000000000
(1608055974.756866) can0 4EC#004AFFE3008F0000
(1608055974.757569) can0 201#90C4000000000000
(1608055974.757951) can0 4ED#00040003FF9E0000
(1608055974.758681) can0 202#903C000000000000
(1608055974.759610) can0 0C0#022DD60000000000
(1608055974.760004) can0 201#90C4000000000000
(1608055974.760504) can0 0C0#0113871388138A32
(1608055974.760864) can0 202#903C000000000000
(1608055974.761215) can0 4EC#0052FFE200970000
(1608055974.761550) can0 0C0#0001900192019004
(1608055974.761875) can0 201#90C4000000000000
(1608055974.762429) can0 4ED#00040003FF9E0000
(1608055974.762758) can0 0D0#150309030900006B
(1608055974.763168) can0 202#903C000000000000
(1608055974.763557) can0 0D0#080000000000006B
(1608055974.763956) can0 201#90C4000000000000
(1608055974.764597) can0 0D0#0700077D00000001
(1608055974.764983) can0 202#903C000000000000
(1608055974.765546) can0 0D0#060000010000006B
(1608055974.765927) can0 201#90C4000000000000
(1608055974.766283) can0 4EC#004CFFE5009B0000
(1608055974.766657) can0 202#903C000000000000
(1608055974.767103) can0 4ED#00040002FF9D0000
(1608055974.767698) can0 201#90C4000000000000
(1608055974.768672) can0 202#903C000000000000
(1608055974.769789) can0 201#90C4000000000000
(1608055974.770255) can0 4EC#0052FFE2009A0000
(1608055974.770653) can0 202#903C000000000000
(1608055974.771415) can0 4ED#00040002FF9E0000
(1608055974.771878) can0 201#90C4000000000000
(1608055974.772770) can0 202#903C000000000000
(1608055974.773693) can0 201#90C4000000000000
(1608055974.774641) can0 4EC#0049FFE900980000
(1608055974.775255) can0 202#903C000000000000
(1608055974.775857) can0 0AA#0500070000
(1608055974.776273) can0 0AA#014211BC9DD49A3A
(1608055974.776632) can0 201#90C4000000000000
(1608055974.776942) can0 4ED#00040002FF9E0000
(1608055974.777294) can0 202#903C000000000000
(1608055974.777606) can0 201#90C4000000000000
(1608055974.778578) can0 202#903C000000000000
(1608055974.779043) can0 0B0#0101600500000000
(1608055974.779583) can0 4EC#0047FFE8009A0000
(1608055974.779995) can0 0C0#022D880000000000
(1608055974.780447) can0 201#90C4000000000000
(1608055974.780838) can0 0B0#02640105BF010053
(1608055974.781294) can0 4ED#00040002FF9E0000
(1608055974.781663) can0 0C0#0113871389138A32
(1608055974.781981) can0 202#903C000000000000
(1608055974.782456) can0 0C0#0001900190019104
(1608055974.782834) can0 201#9062000000000000
(1608055974.783407) can0 0D0#150309030900006B
(1608055974.783790) can0 202#909E000000000000
(1608055974.784158) can0 4EC#0047FFE5008E0000
(1608055974.784585) can0 0D0#080000000000006B
(1608055974.784913) can0 201#9062000000000000
(1608055974.785337) can0 0D0#0700077D00000000
(1608055974.785689) can0 202#909E000000000000
(1608055974.785995) can0 4ED#00040002FF9E0000
(1608055974.786289) can0 0D0#060000000013006B
(1608055974.786602) can0 201#9062000000000000
(1608055974.786946) can0 202#909E000000000000
(1608055974.787567) can0 201#9062000000000000
(1608055974.787911) can0 4EC#0045FFEC00910000
(1608055974.788499) can0 202#909E000000000000
(1608055974.789070) can0 4ED#00040002FF9D0000
(1608055974.789540) can0 201#9062000000000000
(1608055974.790454) can0 181#4A054F02
(1608055974.790795) can0 202#909E000000000000
(1608055974.791167) can0 182#A8000007
(1608055974.791574) can0 201#9062000000000000
(1608055974.792352) can0 4EC#004BFFEF00900000
(1608055974.792665) can0 181#A8040007
(1608055974.792969) can0 202#909E000000000000
(1608055974.793566) can0 201#9062000000000000
(1608055974.793885) can0 4ED#00040003FF9E0000
(1608055974.794517) can0 202#909E000000000000
(1608055974.795603) can0 201#9062000000000000
(1608055974.796502) can0 202#909E000000000000
(1608055974.796855) can0 4EC#003FFFE7008B0000
(1608055974.797534) can0 201#9062000000000000
(1608055974.798018) can0 4ED#00040002FF9E0000
(1608055974.798505) can0 202#909E000000000000
(1608055974.799464) can0 0C0#022DD60000000000
(1608055974.799807) can0 201#9062000000000000
(1608055974.800518) can0 0C0#01138A1388138B32
(1608055974.800855) can0 202#909E000000000000
(1608055974.801336) can0 4EC#003EFFE6008B0000
(1608055974.801680) can0 0C0#0001910193019104
(1608055974.801979) can0 201#9062000000000000
(1608055974.802454) can0 0D0#150309030900006B
(1608055974.802788) can0 202#909E000000000000
(1608055974.803234) can0 4ED#00040002FF9E0000
(1608055974.803609) can0 0D0#080000000000006B
(1608055974.803933) can0 201#9062000000000000
(1608055974.804276) can0 0B0#0101600500000000
(1608055974.804624) can0 0D0#0700000000000000
(1608055974.804943) can0 0B0#02640105DA010060
(1608055974.805269) can0 202#909E000000000000
(1608055974.805622) can0 0D0#060000000000006B
(1608055974.805947) can0 201#9062000000000000
(1608055974.806262) can0 4EC#003EFFEA00900000
(1608055974.806568) can0 202#909E000000000000
(1608055974.807040) can0 4ED#00040003FF9E0000
(1608055974.807575) can0 201#9062000000000000
(1608055974.808498) can0 202#909E000000000000
(1608055974.809530) can0 201#9062000000000000
(1608055974.810269) can0 4EC#0044FFE9008E0000
(1608055974.810622) can0 202#909E000000000000
(1608055974.811535) can0 4ED#00040003FF9E0000
(1608055974.811894) can0 201#9062000000000000
(1608055974.812535) can0 202#909E000000000000
(1608055974.813552) can0 201#9062000000000000
(1608055974.814504) can0 202#909E000000000000
(1608055974.814856) can0 4EC#003EFFEB00920000
(1608055974.815612) can0 201#9062000000000000
(1608055974.815947) can0 0AA#0500070000
(1608055974.816274) can0 0AA#01421A699DD39A38
(1608055974.816612) can0 4ED#00040002FF9E0000
(1608055974.817272) can0 202#909E000000000000
(1608055974.817625) can0 201#9062000000000000
(1608055974.818524) can0 202#909E000000000000
(1608055974.819286) can0 4EC#003AFFE600910000
(1608055974.819647) can0 0C0#022DAF0000000000
(1608055974.819961) can0 201#9062000000000000
(1608055974.820420) can0 4ED#00040003FF9E0000
(1608055974.820754) can0 0C0#0113841387138B32
(1608055974.821074) can0 202#909E000000000000
(1608055974.821425) can0 0C0#0001910191019004
(1608055974.821747) can0 201#9062000000000000
(1608055974.822433) can0 0D0#150309030900006B
(1608055974.822766) can0 202#909E000000000000
(1608055974.823488) can0 0D0#080000000000006B
(1608055974.823834) can0 201#9062000000000000
(1608055974.824152) can0 4EC#0049FFE1008E0000
(1608055974.824504) can0 0D0#0700000000000000
(1608055974.824836) can0 202#909E000000000000
(1608055974.825174) can0 4ED#00050003FF9E0000
(1608055974.825514) can0 0D0#060000000000006B
(1608055974.825830) can0 201#9062000000000000
(1608055974.826504) can0 202#909E000000000000
(1608055974.827621) can0 201#9062000000000000
(1608055974.828133) can0 4EC#0049FFDF00940000
(1608055974.828514) can0 202#909E000000000000
(1608055974.828839) can0 0B0#01015F0500000000
(1608055974.829360) can0 4ED#00040003FF9E0000
(1608055974.829704) can0 201#9062000000000000
(1608055974.830015) can0 0B0#02640105E801006E
(1608055974.830513) can0 202#909E000000000000
(1608055974.831591) can0 201#9062000000000000
(1608055974.832559) can0 202#909E000000000000
(1608055974.832914) can0 4EC#0045FFE6009D0000
(1608055974.833216) can0 0AF#000000
(1608055974.833574) can0 201#9062000000000000
(1608055974.833933) can0 4ED#00040003FF9E0000
(1608055974.834227) can0 201#3DD8
(1608055974.834559) can0 202#909E000000000000
(1608055974.835587) can0 201#9062000000000000
(1608055974.836517) can0 202#909E000000000000
(1608055974.837059) can0 4EC#0040FFEB00970000
(1608055974.837550) can0 201#9062000000000000
(1608055974.838295) can0 4ED#00040002FF9E0000
(1608055974.838653) can0 202#909E000000000000
(1608055974.839456) can0 0C0#022DBC0000000000
(1608055974.839795) can0 201#9062000000000000
(1608055974.840086) can0 182#4A8D4D02
(1608055974.840436) can0 0C0#0113881388138932
(1608055974.840755) can0 202#909E000000000000
(1608055974.841037) can0 182#A8030007
(1608055974.841451) can0 0C0#0001900193019004
(1608055974.841787) can0 4EC#0045FFE500970000
(1608055974.842103) can0 201#9062000000000000
(1608055974.842458) can0 0D0#150309030900006B
(1608055974.842795) can0 181#A8FCFF07
(1608055974.843203) can0 182#5F030008
(1608055974.843561) can0 202#909E000000000000
(1608055974.843879) can0 4ED#00040003FF9D0000
(1608055974.844194) can0 0D0#080000000000006B
(1608055974.844536) can0 201#9062000000000000
(1608055974.844860) can0 0D0#0700000000000000
(1608055974.845174) can0 181#5FFFFF08
(1608055974.845511) can0 182#495D2901
(1608055974.845863) can0 202#909E000000000000
(1608055974.846167) can0 181#49A17F01
(1608055974.846530) can0 0D0#060000000000006B
(1608055974.846869) can0 201#9062000000000000
(1608055974.847330) can0 4EC#0044FFEB00980000
(1608055974.847673) can0 202#909E000000000000
(1608055974.847949) can0 182#EB7B3503
(1608055974.848263) can0 4ED#00040003FF9E0000
(1608055974.848548) can0 181#EB133603
(1608055974.848841) can0 201#9062000000000000
(1608055974.849159) can0 202#909E000000000000
(1608055974.849462) can0 182#8A050004
(1608055974.849735) can0 181#8AF7FF04
(1608055974.850022) can0 201#9062000000000000
(1608055974.850481) can0 4EC#0041FFE900970000
(1608055974.850792) can0 182#F6000005
(1608055974.851218) can0 202#909E000000000000
(1608055974.851578) can0 181#F6000005
(1608055974.851914) can0 201#9062000000000000
(1608055974.852245) can0 4ED#00040003FF9E0000
(1608055974.852574) can0 202#909E000000000000
(1608055974.852849) can0 182#A07A0006
(1608055974.853374) can0 181#A0510006
(1608055974.853718) can0 201#9062000000000000
(1608055974.854027) can0 0B0#01025F0500000000
(1608055974.854527) can0 202#909E000000000000
(1608055974.854940) can0 0B0#02640105E8010060
(1608055974.855335) can0 4EC#0044FFE2009A0000
(1608055974.855704) can0 201#90C4000000000000
(1608055974.856029) can0 0AA#05000C0001
(1608055974.856370) can0 0AA#014212679DD59A35
(1608055974.856700) can0 4ED#00040003FF9E0000
(1608055974.856985) can0 202#903C000000000000
(1608055974.857555) can0 201#90C4000000000000
(1608055974.858526) can0 202#903C000000000000
(1608055974.859754) can0 0C0#022DD60000000000
(1608055974.860290) can0 201#90C4000000000000
(1608055974.860845) can0 4EC#004CFFE4009D0000
(1608055974.861295) can0 0C0#011389138B138C32
(1608055974.861722) can0 202#903C000000000000
(1608055974.862145) can0 4ED#00040003FF9D0000
(1608055974.862596) can0 0C0#0001900191018F04
(1608055974.863284) can0 201#90C4000000000000
(1608055974.863795) can0 0D0#150309030900006B
(1608055974.864230) can0 202#903C000000000000
(1608055974.864788) can0 0D0#080000000000006B
(1608055974.865318) can0 201#90C4000000000000
(1608055974.865794) can0 4EC#0049FFE600940000
(1608055974.866212) can0 0D0#0700077D00000001
(1608055974.866654) can0 202#903C000000000000
(1608055974.867155) can0 4ED#00040003FF9E0000
(1608055974.867614) can0 0D0#060000010000006B
(1608055974.868063) can0 201#90C4000000000000
(1608055974.868612) can0 202#903C000000000000
(1608055974.869026) can0 201#90C4000000000000
(1608055974.869591) can0 4EC#0045FFE800950000
(1608055974.870188) can0 202#903C000000000000
(1608055974.870734) can0 201#90C4000000000000
(1608055974.871308) can0 4ED#00040003FF9E0000
(1608055974.871771) can0 202#903C000000000000
(1608055974.872251) can0 201#90C4000000000000
(1608055974.872725) can0 202#903C000000000000
(1608055974.873140) can0 4EC#0049FFE4009A0000
(1608055974.873694) can0 201#90C4000000000000
(1608055974.874209) can0 4ED#00040003FF9E0000
(1608055974.874651) can0 202#903C000000000000
(1608055974.877849) can0 201#90C4000000000000
(1608055974.879494) can0 202#903C000000000000
(1608055974.879987) can0 4EC#004DFFE500990000
(1608055974.880831) can0 201#90C4000000000000
(1608055974.881675) can0 202#903C000000000000
(1608055974.882339) can0 0B0#0102600500000000
(1608055974.882981) can0 4ED#00040003FF9E0000
(1608055974.883674) can0 0C0#022DA20000000000
(1608055974.884079) can0 0B0#02640105DA010053
(1608055974.884706) can0 201#90C4000000000000
(1608055974.885084) can0 0C0#0113881388138A32
(1608055974.885719) can0 202#903C000000000000
(1608055974.886398) can0 0FF#98003E4300000000
(1608055974.886817) can0 0C0#0001910192018F04
(1608055974.887509) can0 201#90C4000000000000
(1608055974.887942) can0 4EC#004DFFDC00990000
(1608055974.888516) can0 0D0#150309030900006B
(1608055974.888870) can0 202#903C000000000000
(1608055974.889310) can0 4ED#00040003FF9E0000
(1608055974.889643) can0 0D0#080000000000006B
(1608055974.890256) can0 201#90C4000000000000
(1608055974.890742) can0 202#903C000000000000
(1608055974.891150) can0 0D0#0700000000000000
(1608055974.891852) can0 0D0#060000000000006B
(1608055974.892521) can0 201#90C4000000000000
(1608055974.892859) can0 4EC#0041FFDF00970000
(1608055974.893139) can0 202#903C000000000000
(1608055974.893593) can0 4ED#00040002FF9E0000
(1608055974.893889) can0 201#90C4000000000000
(1608055974.894310) can0 202#903C000000000000
(1608055974.894619) can0 201#90C4000000000000
(1608055974.895264) can0 181#4A034F02
(1608055974.895630) can0 182#A8FEFF07
(1608055974.895942) can0 202#903C000000000000
(1608055974.896453) can0 4EC#0038FFF000940000
(1608055974.896781) can0 201#90C4000000000000
(1608055974.897066) can0 4ED#00040002FF9E0000
(1608055974.897498) can0 181#A80E0007
(1608055974.897810) can0 202#903C000000000000
(1608055974.898077) can0 201#90C4000000000000
(1608055974.898545) can0 202#903C000000000000
(1608055974.898838) can0 4EC#0043FFE900970000
(1608055974.899515) can0 201#90C4000000000000
(1608055974.899877) can0 4ED#00040003FF9E0000
(1608055974.900448) can0 202#903C000000000000
(1608055974.900952) can0 201#90C4000000000000
(1608055974.901553) can0 202#903C000000000000
(1608055974.901905) can0 0C0#022E0A0000000000
(1608055974.902435) can0 201#90C4000000000000
(1608055974.903472) can0 4EC#004DFFE6009A0000
(1608055974.904023) can0 0C0#0113861384138C32
(1608055974.904716) can0 202#903C000000000000
(1608055974.905375) can0 4ED#00040003FF9E0000
(1608055974.905758) can0 0C0#0001910192018D04
(1608055974.906089) can0 201#90C4000000000000
(1608055974.906566) can0 0D0#150309030900006B
(1608055974.906864) can0 202#903C000000000000
(1608055974.907351) can0 201#90C4000000000000
(1608055974.907678) can0 0B0#0101600500000000
(1608055974.907966) can0 4EC#0047FFF100990000
(1608055974.908461) can0 0D0#0700000000000000
(1608055974.908795) can0 0B0#02640105CD010060
(1608055974.909088) can0 202#903C000000000000
(1608055974.909688) can0 4ED#00040003FF9E0000
(1608055974.910044) can0 0D0#060000000000006B
(1608055974.910509) can0 201#9062000000000000
(1608055974.910823) can0 202#909E000000000000
(1608055974.911374) can0 201#9062000000000000
(1608055974.911753) can0 202#909E000000000000
(1608055974.912081) can0 4EC#004AFFE5008C0000
(1608055974.912667) can0 201#9062000000000000
(1608055974.913388) can0 4ED#00040003FF9E0000
(1608055974.913785) can0 202#909E000000000000
(1608055974.914364) can0 201#9062000000000000
(1608055974.914726) can0 202#909E000000000000
(1608055974.915070) can0 4EC#004EFFE200910000
(1608055974.915524) can0 0AA#0A039D0422026F
(1608055974.915844) can0 201#9062000000000000
(1608055974.916116) can0 4ED#00040003FF9E0000
(1608055974.916570) can0 202#909E000000000000
(1608055974.916856) can0 201#9062000000000000
(1608055974.917122) can0 202#909E000000000000
(1608055974.917622) can0 201#9062000000000000
(1608055974.917943) can0 4EC#004AFFE100940000
(1608055974.918629) can0 202#909E000000000000
(1608055974.919039) can0 4ED#00040003FF9E0000
(1608055974.919487) can0 0C0#022DA20000000000
(1608055974.919816) can0 201#9062000000000000
(1608055974.920487) can0 0C0#01138D1389138C32
(1608055974.921275) can0 202#909E000000000000
(1608055974.921705) can0 201#9062000000000000
(1608055974.922170) can0 0C0#0001910192019004
(1608055974.922578) can0 4EC#004BFFE600990000
(1608055974.922971) can0 0D0#150309030900006B
(1608055974.923462) can0 202#909E000000000000
(1608055974.923802) can0 4ED#00040002FF9E0000
(1608055974.924112) can0 0D0#080000000000006B
(1608055974.924623) can0 201#9062000000000000
(1608055974.924984) can0 0D0#0700000000000000
(1608055974.925448) can0 202#909E000000000000
(1608055974.925771) can0 0AA#0500080000
(1608055974.926072) can0 0AA#0142106B9DD19A35
(1608055974.926469) can0 0D0#060000000000006B
(1608055974.926804) can0 201#9062000000000000
(1608055974.927211) can0 4EC#004EFFF000940000
(1608055974.927645) can0 202#909E000000000000
(1608055974.927967) can0 201#9062000000000000
(1608055974.928376) can0 4ED#00040002FF9E0000
(1608055974.928733) can0 202#909E000000000000
(1608055974.929041) can0 0B0#0102600500000000
(1608055974.929626) can0 201#9062000000000000
(1608055974.929949) can0 0B0#02640105E8010060
(1608055974.930553) can0 202#909E000000000000
(1608055974.931082) can0 4EC#0046FFF500970000
(1608055974.931611) can0 201#90C4000000000000
(1608055974.932283) can0 4ED#00040003FF9E0000
(1608055974.932633) can0 202#903C000000000000
(1608055974.933601) can0 201#90C4000000000000
(1608055974.934539) can0 202#903C000000000000
(1608055974.935544) can0 4EC#0041FFEC009A0000
(1608055974.935873) can0 201#90C4000000000000
(1608055974.936681) can0 202#903C000000000000
(1608055974.937048) can0 4ED#00040003FF9E0000
(1608055974.937440) can0 0AA#0500080000
(1608055974.937779) can0 0AA#0142088F9DD19A2E
(1608055974.938060) can0 201#90C4000000000000
(1608055974.938616) can0 202#903C000000000000
(1608055974.939548) can0 0C0#022DA20000000000
(1608055974.940041) can0 182#4A904D02
(1608055974.940609) can0 201#90C4000000000000
(1608055974.941062) can0 4EC#004FFFEC008C0000
(1608055974.941586) can0 182#A8020007
(1608055974.942108) can0 0C0#0113811387138D32
(1608055974.942574) can0 202#903C000000000000
(1608055974.943066) can0 4ED#00040003FF9E0000
(1608055974.943617) can0 0C0#0001920192019004
(1608055974.944145) can0 201#90C4000000000000
(1608055974.944670) can0 181#A8060007
(1608055974.945083) can0 182#5F000008
(1608055974.945584) can0 0D0#150309030900006B
(1608055974.945926) can0 202#903C000000000000
(1608055974.946482) can0 0D0#080000000000006B
(1608055974.946924) can0 201#90C4000000000000
(1608055974.947470) can0 181#5F040008
(1608055974.947864) can0 4EC#0044FFF700970000
(1608055974.948292) can0 0D0#0700077D00000001
(1608055974.948750) can0 182#495E2901
(1608055974.949216) can0 202#903C000000000000
(1608055974.949598) can0 181#49A37F01
(1608055974.949989) can0 0D0#060000010013006B
(1608055974.950443) can0 201#90C4000000000000
(1608055974.950851) can0 4ED#00040002FF9E0000
(1608055974.951405) can0 182#EB443503
(1608055974.951744) can0 202#903C000000000000
(1608055974.952008) can0 181#EB2A3603
(1608055974.952419) can0 201#90C4000000000000
(1608055974.952737) can0 182#8AF5FF04
(1608055974.953167) can0 202#903C000000000000
(1608055974.953614) can0 4EC#0040FFEA00900000
(1608055974.954000) can0 181#8A050004
(1608055974.954521) can0 201#90C4000000000000
(1608055974.954944) can0 4ED#00040003FF9E0000
(1608055974.955436) can0 182#F6000005
(1608055974.955838) can0 202#903C000000000000
(1608055974.956102) can0 181#F6000005
(1608055974.956462) can0 201#90C4000000000000
(1608055974.956747) can0 182#A0280006
(1608055974.957024) can0 202#903C000000000000
(1608055974.957326) can0 181#A0A30006
(1608055974.957705) can0 4EC#0044FFE600900000
(1608055974.958019) can0 201#90C4000000000000
(1608055974.958477) can0 0B0#0102600500000000
(1608055974.959100) can0 202#903C000000000000
(1608055974.959741) can0 0B0#02640105CD010060
(1608055974.960313) can0 4ED#00040003FF9E0000
(1608055974.960810) can0 201#90C4000000000000
(1608055974.961299) can0 202#903C000000000000
(1608055974.961731) can0 201#90C4000000000000
(1608055974.962168) can0 4EC#004AFFE800930000
(1608055974.962637) can0 202#903C000000000000
(1608055974.963106) can0 4ED#00040002FF9E0000
(1608055974.963545) can0 0C0#022DD60000000000
(1608055974.963918) can0 201#90C4000000000000
(1608055974.964365) can0 0C0#0113871386138C32
(1608055974.964859) can0 202#903C000000000000
(1608055974.965460) can0 0C0#0001920193019004
(1608055974.965878) can0 201#90C4000000000000
(1608055974.966303) can0 4EC#004FFFE6008D0000
(1608055974.966752) can0 0D0#150309030900006B
(1608055974.967291) can0 202#903C000000000000
(1608055974.967768) can0 0D0#080000000000006B
(1608055974.968256) can0 4ED#00040002FF9E0000
(1608055974.968802) can0 201#90C4000000000000
(1608055974.969198) can0 0D0#0700000000000000
(1608055974.969569) can0 202#903C000000000000
(1608055974.969949) can0 0D0#060000000000006B
(1608055974.970361) can0 201#90C4000000000000
(1608055974.970711) can0 202#903C000000000000
(1608055974.971126) can0 4EC#0044FFE400940000
(1608055974.971567) can0 201#90C4000000000000
(1608055974.971967) can0 4ED#00040002FF9E0000
(1608055974.972371) can0 202#903C000000000000
(1608055974.972741) can0 201#90C4000000000000
(1608055974.973167) can0 202#903C000000000000
(1608055974.973669) can0 4EC#0038FFE300970000
(1608055974.974053) can0 201#90C4000000000000
(1608055974.974423) can0 4ED#00040002FF9E0000
(1608055974.974754) can0 202#903C000000000000
(1608055974.975211) can0 201#90C4000000000000
(1608055974.975670) can0 202#903C000000000000
(1608055974.976031) can0 201#90C4000000000000
(1608055974.976368) can0 4EC#003DFFE900910000
(1608055974.976749) can0 0AA#0500080000
(1608055974.977140) can0 0AA#0142198E9DD59A35
(1608055974.977485) can0 202#903C000000000000
(1608055974.977800) can0 4ED#00040002FF9E0000
(1608055974.978104) can0 201#90C4000000000000
(1608055974.978550) can0 202#903C000000000000
(1608055974.978963) can0 0B0#01025F0500000000
(1608055974.979477) can0 0C0#022E580000000000
(1608055974.980049) can0 201#90C4000000000000
(1608055974.980486) can0 0B0#02640105BF010060
(1608055974.980828) can0 4EC#0041FFEC00990000
(1608055974.981172) can0 0C0#01138C1385138C32
(1608055974.981534) can0 202#903C000000000000
(1608055974.981858) can0 4ED#00040002FF9E0000
(1608055974.982174) can0 0C0#0001920192019104
(1608055974.982829) can0 201#90C4000000000000
(1608055974.983371) can0 0D0#150309030900006B
(1608055974.983718) can0 202#903C000000000000
(1608055974.984021) can0 0D0#080000000000006B
(1608055974.984325) can0 201#90C4000000000000
(1608055974.984671) can0 0D0#0700000000000000
(1608055974.984975) can0 202#903C000000000000
(1608055974.985310) can0 4EC#0042FFEC00990000
(1608055974.985657) can0 0D0#060000000000006B
(1608055974.985986) can0 201#90C4000000000000
(1608055974.986306) can0 4ED#00040003FF9E0000
(1608055974.986619) can0 202#903C000000000000
(1608055974.987609) can0 201#90C4000000000000
(1608055974.988520) can0 202#903C000000000000
(1608055974.989110) can0 4EC#004CFFF200930000
(1608055974.989540) can0 201#90C4000000000000
(1608055974.990162) can0 181#4A0A4F02
(1608055974.990876) can0 4ED#00040002FF9E0000
(1608055974.991360) can0 182#A8000007
(1608055974.991720) can0 202#903C000000000000
(1608055974.992051) can0 201#90C4000000000000
(1608055974.992371) can0 181#A8020007
(1608055974.992680) can0 202#903C000000000000
(1608055974.993549) can0 201#90C4000000000000
(1608055974.993863) can0 4EC#0043FFEC008B0000
(1608055974.994522) can0 202#903C000000000000
(1608055974.994869) can0 4ED#00040002FF9E0000
(1608055974.995626) can0 201#90C4000000000000
(1608055974.996507) can0 202#903C000000000000
(1608055974.997535) can0 201#90C4000000000000
(1608055974.998055) can0 4EC#0048FFEB008C0000
(1608055974.998499) can0 202#903C000000000000
(1608055974.999343) can0 4ED#00040003FF9D0000
(1608055974.999687) can0 0C0#022D7B0000000000
(1608055974.999993) can0 201#90C4000000000000
(1608055975.001966) can0 0C0#01138A1389138A32
(1608055975.003953) can0 202#903C000000000000
(1608055975.004767) can0 0C0#0001920192019004
(1608055975.005466) can0 201#90C4000000000000
(1608055975.005883) can0 0D0#150309030900006B
(1608055975.006452) can0 202#903C000000000000
(1608055975.007105) can0 4EC#0036FFE100940000
(1608055975.007706) can0 0D0#080000000000006B
(1608055975.008484) can0 201#90C4000000000000
(1608055975.008888) can0 0B0#01025F0500000000
(1608055975.009344) can0 4ED#00040002FF9E0000
(1608055975.009669) can0 0D0#0700000000000000
(1608055975.009959) can0 0B0#02640105E8010060
(1608055975.010446) can0 202#903C000000000000
(1608055975.010780) can0 0D0#060000000000006B
(1608055975.011342) can0 201#90C4000000000000
(1608055975.011706) can0 202#903C000000000000
(1608055975.012012) can0 4EC#0034FFE300910000
(1608055975.012598) can0 201#90C4000000000000
(1608055975.012943) can0 4ED#00040002FF9E0000
(1608055975.013394) can0 202#903C000000000000
(1608055975.013717) can0 201#90C4000000000000
(1608055975.013994) can0 202#903C000000000000
(1608055975.014431) can0 4EC#003DFFE0008C0000
(1608055975.014741) can0 201#90C4000000000000
(1608055975.015067) can0 202#903C000000000000
(1608055975.015831) can0 4ED#00040003FF9E0000
(1608055975.016344) can0 201#90C4000000000000
(1608055975.016698) can0 202#903C000000000000
(1608055975.017317) can0 201#90C4000000000000
(1608055975.017659) can0 0AA#0500060000
(1608055975.017952) can0 0AA#014216169DD29A32
(1608055975.018386) can0 4EC#0043FFDD00930000
(1608055975.018697) can0 202#903C000000000000
(1608055975.019261) can0 4ED#00040003FF9E0000
(1608055975.019637) can0 201#90C4000000000000
(1608055975.019939) can0 202#903C000000000000
(1608055975.020583) can0 0C0#022DAF0000000000
(1608055975.020952) can0 201#90C4000000000000
(1608055975.021621) can0 0C0#0113871388138C32
(1608055975.021973) can0 202#903C000000000000
(1608055975.022523) can0 4EC#0047FFEC009D0000
(1608055975.022859) can0 0C0#0001920191018F04
(1608055975.023446) can0 201#90C4000000000000
(1608055975.023787) can0 4ED#00040003FF9E0000
(1608055975.024293) can0 0D0#150309030900006B
(1608055975.024790) can0 202#903C000000000000
(1608055975.025493) can0 0D0#080000000000006B
(1608055975.026081) can0 201#90C4000000000000
(1608055975.026656) can0 0D0#0700000000000000
(1608055975.027098) can0 202#903C000000000000
(1608055975.027676) can0 4EC#004BFFE000970000
(1608055975.028029) can0 0D0#060000000000006B
(1608055975.028593) can0 201#90C4000000000000
(1608055975.028963) can0 4ED#00040003FF9D0000
(1608055975.029731) can0 202#903C000000000000
(1608055975.030106) can0 201#90C4000000000000
(1608055975.030766) can0 202#903C000000000000
(1608055975.031356) can0 0B0#0101600500000000
(1608055975.031782) can0 4EC#0047FFEC00990000
(1608055975.032113) can0 201#90C4000000000000
(1608055975.032704) can0 0B0#02640105E8010096
(1608055975.033061) can0 202#903C000000000000
(1608055975.033726) can0 4ED#00040003FF9E0000
(1608055975.034263) can0 201#9062000000000000
(1608055975.034816) can0 202#909E000000000000
(1608055975.035503) can0 0FF#98003E4400000000
(1608055975.036066) can0 201#9062000000000000
(1608055975.036613) can0 4EC#004AFFE300990000
(1608055975.036997) can0 202#909E000000000000
(1608055975.037490) can0 4ED#00040003FF9E0000
(1608055975.037888) can0 201#9062000000000000
(1608055975.038488) can0 202#3DD8
(1608055975.039249) can0 202#909E000000000000
(1608055975.039753) can0 201#9062000000000000
(1608055975.040578) can0 4EC#0046FFE300990000
(1608055975.040974) can0 202#909E000000000000
(1608055975.041589) can0 182#4A964D02
(1608055975.042565) can0 0C0#022DC90000000000
(1608055975.043004) can0 4ED#00040003FF9E0000
(1608055975.043976) can0 201#9062000000000000
(1608055975.044604) can0 182#A8000007
(1608055975.045349) can0 0C0#0113891389138B32
(1608055975.045741) can0 202#909E000000000000
(1608055975.046439) can0 0C0#0001910192019104
(1608055975.047272) can0 201#9062000000000000
(1608055975.047714) can0 181#A8010007
(1608055975.048472) can0 182#5F030008
(1608055975.049021) can0 0D0#150309030900006B
(1608055975.049531) can0 202#909E000000000000
(1608055975.050084) can0 4EC#003EFFE500990000
(1608055975.050625) can0 0D0#080000000000006B
(1608055975.051495) can0 201#9062000000000000
(1608055975.052102) can0 4ED#00040003FF9E0000
(1608055975.052875) can0 181#5F020008
(1608055975.053520) can0 182#495E2901
(1608055975.053895) can0 0D0#0700000000000000
(1608055975.054430) can0 202#909E000000000000
(1608055975.054838) can0 181#499C7F01
(1608055975.055434) can0 0D0#060000000000006B
(1608055975.056273) can0 201#9062000000000000
(1608055975.056707) can0 182#EB3C3503
(1608055975.057298) can0 202#909E000000000000
(1608055975.057631) can0 181#EB883603
(1608055975.057950) can0 4EC#003BFFE6008B0000
(1608055975.058419) can0 201#9062000000000000
(1608055975.058845) can0 182#8A110004
(1608055975.059592) can0 4ED#00040003FF9D0000
(1608055975.060032) can0 202#909E000000000000
(1608055975.060766) can0 181#8A080004
(1608055975.061435) can0 201#9062000000000000
(1608055975.061980) can0 182#F6000005
(1608055975.062595) can0 202#909E000000000000
(1608055975.062985) can0 181#F6000005
(1608055975.063662) can0 201#9062000000000000
(1608055975.064368) can0 4EC#003FFFE0008E0000
(1608055975.065009) can0 182#A07A0006
(1608055975.065703) can0 202#909E000000000000
(1608055975.066399) can0 4ED#00040003FF9E0000
(1608055975.066865) can0 181#A0510006
(1608055975.067564) can0 201#9062000000000000
(1608055975.068023) can0 0B0#0102600500000000
(1608055975.068757) can0 202#909E000000000000
(1608055975.069474) can0 0B0#02640105B2010053
(1608055975.070144) can0 201#9062000000000000
(1608055975.070648) can0 0AA#0500040000
(1608055975.071053) can0 0AA#0142195B9DC79A3C
(1608055975.071366) can0 4EC#0048FFF700960000
(1608055975.071659) can0 202#909E000000000000
(1608055975.071929) can0 4ED#00040003FF9E0000
(1608055975.072212) can0 201#90C4000000000000
(1608055975.072487) can0 202#903C000000000000
(1608055975.072782) can0 0C0#022DA20000000000
(1608055975.073057) can0 201#90C4000000000000
(1608055975.073333) can0 202#903C000000000000
(1608055975.073615) can0 0C0#011387138A138B32
(1608055975.073893) can0 4EC#0049FFF500970000
(1608055975.074167) can0 0C0#0001930192019004
(1608055975.074456) can0 201#90C4000000000000
(1608055975.074730) can0 4ED#00040003FF9E0000
(1608055975.075086) can0 202#903C000000000000
(1608055975.075428) can0 0D0#150309030900006B
(1608055975.075773) can0 0D0#080000000000006B
(1608055975.076809) can0 201#90C4000000000000
(1608055975.077351) can0 0D0#0700000000000000
(1608055975.077931) can0 202#903C000000000000
(1608055975.078431) can0 4EC#0044FFEC00970000
(1608055975.078818) can0 0D0#060000000000006B
(1608055975.079226) can0 201#90C4000000000000
(1608055975.079590) can0 4ED#00040003FF9E0000
(1608055975.079926) can0 202#903C000000000000
(1608055975.080278) can0 201#90C4000000000000
(1608055975.080670) can0 202#903C000000000000
(1608055975.081009) can0 201#90C4000000000000
(1608055975.081341) can0 4EC#0042FFE700980000
(1608055975.081669) can0 202#903C000000000000
(1608055975.081979) can0 4ED#00040003FF9E0000
(1608055975.082295) can0 201#90C4000000000000
(1608055975.082603) can0 202#903C000000000000
(1608055975.082966) can0 201#90C4000000000000
(1608055975.083354) can0 4EC#0041FFE900910000
(1608055975.083683) can0 202#903C000000000000
(1608055975.083996) can0 4ED#00040003FF9E0000
(1608055975.084335) can0 201#90C4000000000000
(1608055975.084657) can0 202#903C000000000000
(1608055975.084964) can0 201#90C4000000000000
(1608055975.085272) can0 202#903C000000000000
(1608055975.085584) can0 0B0#0100600500000000
(1608055975.085928) can0 4EC#003BFFDD00910000
(1608055975.086294) can0 0C0#022DD60000000000
(1608055975.086627) can0 201#90C4000000000000
(1608055975.086987) can0 0B0#02640105E8010060
(1608055975.087285) can0 4ED#00040003FF9E0000
(1608055975.087613) can0 0C0#0113871389138A32
(1608055975.087912) can0 202#903C000000000000
(1608055975.088208) can0 0C0#0001920191018E04
(1608055975.088535) can0 201#9000000000000000
(1608055975.088852) can0 0D0#150309030900006B
(1608055975.089152) can0 202#9000000000000000
(1608055975.089449) can0 4EC#0047FFE600900000
(1608055975.089770) can0 0D0#080000000000006B
(1608055975.090112) can0 201#9000000000000000
(1608055975.090441) can0 4ED#00040003FF9E0000
(1608055975.090755) can0 0D0#0700077D00000000
(1608055975.091101) can0 202#9000000000000000
(1608055975.091416) can0 0D0#060000000000006B
(1608055975.091733) can0 201#9000000000000000
(1608055975.092059) can0 202#9000000000000000
(1608055975.092380) can0 201#9000000000000000
(1608055975.092695) can0 4EC#0058FFEC008E0000
(1608055975.092999) can0 202#9000000000000000
(1608055975.093321) can0 4ED#00040003FF9D0000
(1608055975.093648) can0 201#9000000000000000
(1608055975.093910) can0 181#4A104F02
(1608055975.094167) can0 182#A8000007
(1608055975.094476) can0 202#9000000000000000
(1608055975.094773) can0 201#9000000000000000
(1608055975.095104) can0 4EC#004DFFEA00950000
(1608055975.095387) can0 181#A8F8FF07
(1608055975.095684) can0 202#9000000000000000
(1608055975.095971) can0 4ED#00040002FF9D0000
(1608055975.096257) can0 201#9000000000000000
(1608055975.096565) can0 202#9000000000000000
(1608055975.096868) can0 201#9000000000000000
(1608055975.097163) can0 4EC#0042FFE900940000
(1608055975.097490) can0 202#9000000000000000
(1608055975.097807) can0 201#9000000000000000
(1608055975.098098) can0 4ED#00040002FF9E0000
(1608055975.098615) can0 202#9000000000000000
(1608055975.099534) can0 0C0#022DE30000000000
(1608055975.099876) can0 201#9000000000000000
(1608055975.100476) can0 0C0#0113881388138D32
(1608055975.100889) can0 202#9000000000000000
(1608055975.101249) can0 4EC#003CFFE600910000
(1608055975.101593) can0 0C0#00018F0192018F04
(1608055975.101929) can0 201#9000000000000000
(1608055975.102272) can0 4ED#00040002FF9E0000
(1608055975.102600) can0 202#9000000000000000
(1608055975.102981) can0 0D0#150309030900006B
(1608055975.103515) can0 0D0#080000000000006B
(1608055975.103857) can0 201#9000000000000000
(1608055975.104192) can0 0B0#0102600500000000
(1608055975.104542) can0 0D0#0700077D00000000
(1608055975.104854) can0 0B0#02640105DA010060
(1608055975.105170) can0 202#9000000000000000
(1608055975.105630) can0 0D0#060000000013006B
(1608055975.105995) can0 4EC#003BFFF100970000
(1608055975.106422) can0 201#90C4000000000000
(1608055975.106817) can0 202#903C000000000000
(1608055975.107352) can0 4ED#00040003FF9E0000
(1608055975.107739) can0 201#90C4000000000000
(1608055975.108531) can0 202#903C000000000000
(1608055975.109584) can0 201#90C4000000000000
(1608055975.110025) can0 4EC#003BFFE900980000
(1608055975.110551) can0 202#903C000000000000
(1608055975.111225) can0 4ED#00040002FF9E0000
(1608055975.111654) can0 201#90C4000000000000
(1608055975.112506) can0 202#903C000000000000
(1608055975.113562) can0 201#90C4000000000000
(1608055975.113951) can0 0AA#0A039D0422026F
(1608055975.114408) can0 4EC#0041FFDB009E0000
(1608055975.114800) can0 202#903C000000000000
(1608055975.115669) can0 201#90C4000000000000
(1608055975.116078) can0 4ED#00040002FF9D0000
(1608055975.116548) can0 202#903C000000000000
(1608055975.117578) can0 201#90C4000000000000
(1608055975.118533) can0 202#903C000000000000
(1608055975.119003) can0 4EC#0039FFE0009A0000
(1608055975.119481) can0 0C0#022E240000000000
(1608055975.119907) can0 201#90C4000000000000
(1608055975.120322) can0 4ED#00040002FF9D0000
(1608055975.120738) can0 202#903C000000000000
(1608055975.121098) can0 0C0#01138A1388138B32
(1608055975.121873) can0 0C0#0001920192018D04
(1608055975.122327) can0 201#90C4000000000000
(1608055975.122744) can0 0D0#150309030900006B
(1608055975.123229) can0 202#903C000000000000
(1608055975.123668) can0 4EC#0049FFE300950000
(1608055975.124054) can0 0D0#080000000000006B
(1608055975.124492) can0 201#90C4000000000000
(1608055975.124924) can0 0D0#0700077D00000000
(1608055975.125400) can0 202#903C000000000000
(1608055975.125793) can0 4ED#00040002FF9E0000
(1608055975.126148) can0 0AA#0500060000
(1608055975.126586) can0 0AA#01423F9FC31F9A47
(1608055975.127090) can0 0D0#060000000013006B
(1608055975.127558) can0 201#90C4000000000000
(1608055975.127963) can0 202#903C000000000000
(1608055975.128330) can0 201#90C4000000000000
(1608055975.128736) can0 4EC#003FFFE3009C0000
(1608055975.129123) can0 202#903C000000000000
(1608055975.129579) can0 0B0#01025F0500000000
(1608055975.129947) can0 4ED#00040002FF9E0000
(1608055975.130322) can0 201#90C4000000000000
(1608055975.130723) can0 0B0#02640105DA01006E
(1608055975.131069) can0 202#903C000000000000
(1608055975.131549) can0 201#90C4000000000000
(1608055975.132272) can0 4EC#0043FFE2009A0000
(1608055975.132599) can0 202#903C000000000000
(1608055975.133493) can0 4ED#00040002FF9E0000
(1608055975.133823) can0 201#90C4000000000000
(1608055975.134508) can0 202#903C000000000000
(1608055975.135669) can0 201#90C4000000000000
(1608055975.136550) can0 202#903C000000000000
(1608055975.136930) can0 4EC#003BFFE5009B0000
(1608055975.137268) can0 0AA#0500060000
(1608055975.137603) can0 0AA#01425A01C31F9A31
(1608055975.137947) can0 201#90C4000000000000
(1608055975.138350) can0 4ED#00040002FF9E0000
(1608055975.138735) can0 202#903C000000000000
(1608055975.139224) can0 182#4A954D02
(1608055975.139585) can0 0C0#022E3E0000000000
(1608055975.139928) can0 201#90C4000000000000
(1608055975.140265) can0 182#A8FFFF07
(1608055975.140604) can0 0C0#0113861386138A32
(1608055975.140915) can0 202#903C000000000000
(1608055975.141268) can0 4EC#0040FFEB009A0000
(1608055975.141606) can0 0C0#0001910192018D04
(1608055975.141966) can0 201#90C4000000000000
(1608055975.142321) can0 181#A8EFFF07
(1608055975.142636) can0 182#5F010008
(1608055975.143008) can0 0D0#150309030900006B
(1608055975.143371) can0 202#903C000000000000
(1608055975.143724) can0 4ED#00040002FF9E0000
(1608055975.144060) can0 0D0#080000000000006B
(1608055975.144396) can0 201#90C4000000000000
(1608055975.144727) can0 181#5F000008
(1608055975.145026) can0 182#495E2901
(1608055975.145357) can0 202#903C000000000000
(1608055975.145718) can0 0D0#0700000000000000
(1608055975.146035) can0 181#49937F01
(1608055975.146363) can0 0D0#060000000000006B
(1608055975.146705) can0 201#90C4000000000000
(1608055975.147136) can0 4EC#0047FFF200950000
(1608055975.147495) can0 182#EB443503
(1608055975.147838) can0 202#903C000000000000
(1608055975.148163) can0 4ED#00040002FF9E0000
(1608055975.148478) can0 181#EB593603
(1608055975.148813) can0 201#90C4000000000000
(1608055975.149096) can0 182#8AF9FF04
(1608055975.149859) can0 202#903C000000000000
(1608055975.150242) can0 181#8A010004
(1608055975.150593) can0 201#90C4000000000000
(1608055975.150955) can0 182#F6000005
(1608055975.151364) can0 4EC#004BFFF1008D0000
(1608055975.151710) can0 202#903C000000000000
(1608055975.152018) can0 181#F6000005
(1608055975.152361) can0 4ED#00040002FF9E0000
(1608055975.152704) can0 201#90C4000000000000
(1608055975.153008) can0 182#A0280006
(1608055975.153325) can0 202#903C000000000000
(1608055975.153624) can0 181#A0A30006
(1608055975.153926) can0 201#90C4000000000000
(1608055975.154230) can0 0B0#0101600500000000
(1608055975.154543) can0 202#903C000000000000
(1608055975.154847) can0 0B0#02640105BF010045
(1608055975.155235) can0 4EC#004DFFE6008E0000
(1608055975.155585) can0 201#9062000000000000
(1608055975.155914) can0 4ED#00040003FF9E0000
(1608055975.156524) can0 202#909E000000000000
(1608055975.157571) can0 201#9062000000000000
(1608055975.158510) can0 202#909E000000000000
(1608055975.159209) can0 4EC#004AFFE6008E0000
(1608055975.159668) can0 0C0#022D880000000000
(1608055975.160035) can0 201#9062000000000000
(1608055975.160460) can0 4ED#00040003FF9E0000
(1608055975.160833) can0 0C0#0113851389138A32
(1608055975.161188) can0 202#909E000000000000
(1608055975.161606) can0 0C0#0001900191019004
(1608055975.161935) can0 201#9062000000000000
(1608055975.162618) can0 0D0#150309030900006B
(1608055975.163067) can0 202#909E000000000000
(1608055975.163491) can0 0D0#080000000000006B
(1608055975.163827) can0 201#9062000000000000
(1608055975.164161) can0 4EC#0049FFE4008C0000
(1608055975.164492) can0 0D0#0700000000000000
(1608055975.164836) can0 202#909E000000000000
(1608055975.165246) can0 4ED#00040002FF9E0000
(1608055975.165621) can0 0D0#060000000000006B
(1608055975.165984) can0 201#9062000000000000
(1608055975.166635) can0 202#909E000000000000
(1608055975.167802) can0 201#9062000000000000
(1608055975.168255) can0 4EC#0044FFE2008E0000
(1608055975.168660) can0 202#909E000000000000
(1608055975.169428) can0 4ED#00040003FF9E0000
(1608055975.169824) can0 201#9062000000000000
(1608055975.170681) can0 202#909E000000000000
(1608055975.171798) can0 201#9062000000000000
(1608055975.172803) can0 202#909E000000000000
(1608055975.173243) can0 4EC#0046FFE000970000
(1608055975.173633) can0 201#9062000000000000
(1608055975.173981) can0 4ED#00040003FF9F0000
(1608055975.175332) can0 202#909E000000000000
(1608055975.175922) can0 201#9062000000000000
(1608055975.176388) can0 0AA#0500080000
(1608055975.176933) can0 0AA#014208D59DD69A39
(1608055975.177429) can0 202#909E000000000000
(1608055975.177799) can0 4EC#004BFFE900980000
(1608055975.178147) can0 201#9062000000000000
(1608055975.178510) can0 4ED#00040003FF9E0000
(1608055975.178839) can0 202#909E000000000000
(1608055975.179242) can0 0B0#0101600500000000
(1608055975.179609) can0 0C0#022DF00000000000
(1608055975.179919) can0 201#9062000000000000
(1608055975.180257) can0 0B0#02640105CD010053
(1608055975.180673) can0 0C0#011385138A138932
(1608055975.181062) can0 202#909E000000000000
(1608055975.181507) can0 0C0#0001910191019004
(1608055975.181907) can0 4EC#003EFFE200940000
(1608055975.182234) can0 201#9062000000000000
(1608055975.182588) can0 0D0#150309030900006B
(1608055975.182959) can0 202#909E000000000000
(1608055975.183377) can0 4ED#00040003FF9E0000
(1608055975.183824) can0 0D0#080000000000006B
(1608055975.184175) can0 201#9062000000000000
(1608055975.184523) can0 0D0#0700000000000000
(1608055975.184854) can0 202#909E000000000000
(1608055975.185181) can0 0FF#99003E4400000000
(1608055975.185524) can0 0D0#060000000000006B
(1608055975.185851) can0 201#9062000000000000
(1608055975.186172) can0 4EC#003BFFEA009B0000
(1608055975.186492) can0 202#909E000000000000
(1608055975.187262) can0 4ED#00040003FF9E0000
(1608055975.187632) can0 201#9062000000000000
(1608055975.188531) can0 202#909E000000000000
(1608055975.189573) can0 201#9062000000000000
(1608055975.190001) can0 181#4A0E4F02
(1608055975.190388) can0 182#A8000007
(1608055975.190719) can0 4EC#0045FFEB00930000
(1608055975.191111) can0 202#909E000000000000
(1608055975.191605) can0 201#9062000000000000
(1608055975.192002) can0 4ED#00040003FF9E0000
(1608055975.192385) can0 181#A8030007
(1608055975.192750) can0 202#909E000000000000
(1608055975.193552) can0 201#9062000000000000
(1608055975.194531) can0 202#909E000000000000
(1608055975.194986) can0 4EC#0051FFF200910000
(1608055975.195618) can0 201#9062000000000000
(1608055975.196132) can0 4ED#00040003FF9E0000
(1608055975.196562) can0 202#909E000000000000
(1608055975.197555) can0 201#9062000000000000
(1608055975.198560) can0 202#909E000000000000
(1608055975.199522) can0 4EC#004AFFED008B0000
(1608055975.199941) can0 0C0#022DBC0000000000
(1608055975.200363) can0 201#9062000000000000
(1608055975.200781) can0 0C0#0113861389138A32
(1608055975.201157) can0 202#909E000000000000
(1608055975.201595) can0 4ED#00040003FF9E0000
(1608055975.201955) can0 0C0#0001910192019104
(1608055975.202317) can0 201#9062000000000000
(1608055975.202684) can0 0D0#150309030900006B
(1608055975.203135) can0 202#909E000000000000
(1608055975.203560) can0 0D0#080000000000006B
(1608055975.203955) can0 201#9062000000000000
(1608055975.204342) can0 0B0#0101600500000000
(1608055975.204764) can0 4EC#003BFFE7008C0000
(1608055975.205184) can0 0D0#0700000000000000
(1608055975.205616) can0 0B0#02640105CD01006E
(1608055975.205982) can0 202#909E000000000000
(1608055975.206363) can0 4ED#00040003FF9D0000
(1608055975.206732) can0 0D0#060000000000006B
(1608055975.207137) can0 201#9062000000000000
(1608055975.207477) can0 202#909E000000000000
(1608055975.207841) can0 201#9062000000000000
(1608055975.208335) can0 4EC#0038FFE900910000
(1608055975.208724) can0 202#909E000000000000
(1608055975.209567) can0 4ED#00040003FF9E0000
(1608055975.209967) can0 201#9062000000000000
(1608055975.210530) can0 202#909E000000000000
(1608055975.211591) can0 201#9062000000000000
(1608055975.212540) can0 202#909E000000000000
(1608055975.212950) can0 4EC#003DFFE400910000
(1608055975.213567) can0 201#9062000000000000
(1608055975.214037) can0 4ED#00040003FF9E0000
(1608055975.214524) can0 202#909E000000000000
(1608055975.215633) can0 201#9062000000000000
(1608055975.216265) can0 0AA#0500070000
(1608055975.216630) can0 0AA#01423871C3769A47
(1608055975.216959) can0 202#909E000000000000
(1608055975.217300) can0 4EC#0044FFE800990000
(1608055975.217616) can0 201#9062000000000000
(1608055975.218513) can0 4ED#00040003FF9E0000
(1608055975.218838) can0 202#909E000000000000
(1608055975.219484) can0 0C0#022DA20000000000
(1608055975.219814) can0 201#9062000000000000
(1608055975.220438) can0 0C0#0113861388138C32
(1608055975.220767) can0 202#909E000000000000
(1608055975.221458) can0 0C0#0001920191019004
(1608055975.221805) can0 201#9062000000000000
(1608055975.222136) can0 4EC#0040FFEA00970000
(1608055975.222463) can0 0D0#150309030900006B
(1608055975.222790) can0 202#909E000000000000
(1608055975.223216) can0 4ED#00040003FF9E0000
(1608055975.223577) can0 0D0#080000000000006B
(1608055975.223886) can0 201#9062000000000000
(1608055975.224435) can0 0D0#0700000000000000
(1608055975.224761) can0 202#909E000000000000
(1608055975.225458) can0 0D0#060000000000006B
(1608055975.225787) can0 201#9062000000000000
(1608055975.226240) can0 4EC#004AFFE3009E0000
(1608055975.226578) can0 202#909E000000000000
(1608055975.227471) can0 4ED#00040003FF9D0000
(1608055975.227816) can0 201#9062000000000000
(1608055975.228555) can0 202#909E000000000000
(1608055975.228887) can0 0B0#01015F0500000000
(1608055975.229577) can0 201#9062000000000000
(1608055975.229910) can0 0B0#02640105F5010089
(1608055975.230533) can0 202#909E000000000000
(1608055975.230860) can0 4EC#0046FFE400940000
(1608055975.231607) can0 201#9062000000000000
(1608055975.231975) can0 4ED#00040003FF9E0000
(1608055975.232515) can0 202#909E000000000000
(1608055975.233547) can0 201#9062000000000000
(1608055975.234510) can0 202#909E000000000000
(1608055975.235304) can0 4EC#004BFFEF008E0000
(1608055975.235663) can0 201#9062000000000000
(1608055975.236525) can0 4ED#00040002FF9E0000
(1608055975.236881) can0 202#909E000000000000
(1608055975.237559) can0 201#9062000000000000
(1608055975.238539) can0 202#909E000000000000
(1608055975.238877) can0 182#4A914D02
(1608055975.239621) can0 0C0#022DBC0000000000
(1608055975.239983) can0 201#9062000000000000
(1608055975.240335) can0 4EC#004BFFEA00950000
(1608055975.240670) can0 182#A8000007
(1608055975.240999) can0 0C0#0113871389138B32
(1608055975.241348) can0 202#909E000000000000
(1608055975.241723) can0 4ED#00040002FF9E0000
(1608055975.242057) can0 0C0#0001930192018F04
(1608055975.242414) can0 201#9062000000000000
(1608055975.242719) can0 181#A8000007
(1608055975.243079) can0 182#5F030008
(1608055975.243425) can0 0D0#150309030900006B
(1608055975.243789) can0 202#909E000000000000
(1608055975.244148) can0 0D0#080000000000006B
(1608055975.244531) can0 201#9062000000000000
(1608055975.244848) can0 181#5FFFFF08
(1608055975.245166) can0 182#495E2901
(1608055975.245524) can0 4EC#0041FFE500940000
(1608055975.245878) can0 0D0#0700000000000000
(1608055975.246203) can0 202#909E000000000000
(1608055975.246527) can0 181#498D7F01
(1608055975.246850) can0 4ED#00040003FF9E0000
(1608055975.247214) can0 0D0#060000000000006B
(1608055975.247543) can0 201#9062000000000000
(1608055975.247843) can0 182#EB9B3503
(1608055975.248147) can0 202#909E000000000000
(1608055975.248430) can0 181#EB3A3603
(1608055975.248771) can0 201#9062000000000000
(1608055975.249042) can0 182#8A0B0004
(1608055975.249367) can0 202#909E000000000000
(1608055975.249711) can0 4EC#0043FFED00900000
(1608055975.250012) can0 181#8AFAFF04
(1608055975.250338) can0 201#9062000000000000
(1608055975.250688) can0 4ED#00040002FF9E0000
(1608055975.251024) can0 182#F6000005
(1608055975.251320) can0 202#909E000000000000
(1608055975.251621) can0 181#F6000005
(1608055975.251933) can0 201#9062000000000000
(1608055975.252191) can0 182#A07A0006
(1608055975.252501) can0 202#909E000000000000
(1608055975.252814) can0 181#A0510006
(1608055975.253127) can0 4EC#004AFFEF00910000
(1608055975.253583) can0 201#9062000000000000
(1608055975.253917) can0 0B0#01015F0500000000
(1608055975.254278) can0 4ED#00040002FF9E0000
(1608055975.254618) can0 202#909E000000000000
(1608055975.254999) can0 0B0#02640105DA010053
(1608055975.255586) can0 201#9062000000000000
(1608055975.256313) can0 0AA#0500040000
(1608055975.256651) can0 0AA#01422EDAC3889A31
(1608055975.256959) can0 202#909E000000000000
(1608055975.257583) can0 4EC#0044FFF100910000
(1608055975.257904) can0 201#9062000000000000
(1608055975.258534) can0 202#909E000000000000
(1608055975.258871) can0 4ED#00040002FF9E0000
(1608055975.259466) can0 0C0#022DAF0000000000
(1608055975.259839) can0 201#9062000000000000
(1608055975.260632) can0 0C0#011386138B138832
(1608055975.261004) can0 202#909E000000000000
(1608055975.261536) can0 0C0#0001920192019004
(1608055975.261919) can0 201#9062000000000000
(1608055975.262276) can0 4EC#0044FFE700960000
(1608055975.262621) can0 0D0#150309030900006B
(1608055975.263021) can0 202#909E000000000000
(1608055975.263383) can0 4ED#00040002FF9D0000
(1608055975.263716) can0 0D0#080000000000006B
(1608055975.264027) can0 201#9062000000000000
(1608055975.264468) can0 0D0#0700077D00000001
(1608055975.264802) can0 202#909E000000000000
(1608055975.265689) can0 0D0#060000010000006B
(1608055975.266112) can0 201#9062000000000000
(1608055975.266604) can0 4EC#0040FFE6009A0000
(1608055975.267061) can0 202#909E000000000000
(1608055975.267735) can0 201#9062000000000000
(1608055975.268147) can0 4ED#00040003FF9E0000
(1608055975.268631) can0 202#909E000000000000
(1608055975.269778) can0 201#9062000000000000
(1608055975.270720) can0 202#909E000000000000
(1608055975.271263) can0 4EC#003EFFE300950000
(1608055975.271684) can0 201#9062000000000000
(1608055975.272286) can0 4ED#00040002FF9E0000
(1608055975.272665) can0 202#909E000000000000
(1608055975.273843) can0 201#9062000000000000
(1608055975.274711) can0 202#909E000000000000
(1608055975.275628) can0 4EC#004BFFE900990000
(1608055975.276032) can0 201#9062000000000000
(1608055975.276649) can0 202#909E000000000000
(1608055975.277072) can0 4ED#00040002FF9E0000
(1608055975.277590) can0 201#9062000000000000
(1608055975.278563) can0 202#909E000000000000
(1608055975.279072) can0 0B0#01015F0500000000
(1608055975.279616) can0 0C0#022DA20000000000
(1608055975.280098) can0 201#9062000000000000
(1608055975.280579) can0 0B0#02640105CD010053
(1608055975.280974) can0 4EC#0046FFE500990000
(1608055975.281419) can0 0C0#0113871388138C32
(1608055975.281799) can0 202#909E000000000000
(1608055975.282189) can0 4ED#00040003FF9E0000
(1608055975.282576) can0 0C0#0001910191019004
(1608055975.282991) can0 201#9062000000000000
(1608055975.283450) can0 0D0#150309030900006B
(1608055975.283933) can0 202#909E000000000000
(1608055975.284373) can0 0D0#080000000000006B
(1608055975.284794) can0 201#9062000000000000
(1608055975.285184) can0 4EC#0043FFE600940000
(1608055975.285631) can0 0D0#0700000000000000
(1608055975.286012) can0 202#909E000000000000
(1608055975.286404) can0 0D0#060000010013006B
(1608055975.286770) can0 201#9062000000000000
(1608055975.287200) can0 4ED#00040002FF9E0000
(1608055975.287584) can0 202#909E000000000000
(1608055975.287958) can0 201#9062000000000000
(1608055975.288554) can0 202#909E000000000000
(1608055975.288966) can0 4EC#0047FFEA00970000
(1608055975.289610) can0 201#9062000000000000
(1608055975.290046) can0 181#4A0D4F02
(1608055975.290424) can0 182#A8000007
(1608055975.290750) can0 4ED#00040003FF9E0000
(1608055975.291134) can0 202#909E000000000000
(1608055975.291580) can0 201#9062000000000000
(1608055975.291929) can0 181#A8FEFF07
(1608055975.292542) can0 202#909E000000000000
(1608055975.293319) can0 4EC#0047FFDE009A0000
(1608055975.293735) can0 201#9062000000000000
(1608055975.294553) can0 202#909E000000000000
(1608055975.295039) can0 4ED#00040003FF9E0000
(1608055975.295624) can0 201#9062000000000000
(1608055975.296534) can0 202#909E000000000000
(1608055975.297584) can0 201#9062000000000000
(1608055975.298013) can0 4EC#0046FFE3009A0000
(1608055975.298553) can0 202#909E000000000000
(1608055975.299129) can0 4ED#00040002FF9E0000
(1608055975.299592) can0 0C0#022D880000000000
(1608055975.299989) can0 201#9062000000000000
(1608055975.300454) can0 0C0#011385138B138D32
(1608055975.300855) can0 202#909E000000000000
(1608055975.301508) can0 0C0#0001900191018F04
(1608055975.301902) can0 201#9062000000000000
(1608055975.302319) can0 4EC#004AFFE800970000
(1608055975.302720) can0 0D0#150309030900006B
(1608055975.303184) can0 202#909E000000000000
(1608055975.303665) can0 0D0#080000000000006B
(1608055975.304006) can0 4ED#00040002FF9E0000
(1608055975.304348) can0 0B0#0103600500000000
(1608055975.304697) can0 201#9062000000000000
(1608055975.305003) can0 0D0#0700000000000000
(1608055975.305353) can0 0B0#02640105CD010060
(1608055975.305681) can0 202#909E000000000000
(1608055975.305978) can0 0D0#060000000000006B
(1608055975.306263) can0 201#9026010000000000
(1608055975.306584) can0 202#90DAFF0000000000
(1608055975.306943) can0 4EC#004AFFE400920000
(1608055975.307604) can0 201#9026010000000000
(1608055975.307971) can0 4ED#00040002FF9E0000
(1608055975.308515) can0 202#90DAFF0000000000
(1608055975.309550) can0 201#9026010000000000
(1608055975.310543) can0 202#90DAFF0000000000
(1608055975.311920) can0 4EC#0041FFE300940000
(1608055975.312285) can0 201#9026010000000000
(1608055975.312618) can0 4ED#00040003FF9E0000
(1608055975.312917) can0 202#90DAFF0000000000
(1608055975.313558) can0 201#9026010000000000
(1608055975.314223) can0 0AA#0A039D0422026F
(1608055975.314564) can0 202#90DAFF0000000000
(1608055975.315653) can0 201#9026010000000000
(1608055975.315995) can0 4EC#0043FFE100910000
(1608055975.316537) can0 202#90DAFF0000000000
(1608055975.316900) can0 4ED#00040002FF9F0000
(1608055975.317560) can0 201#9026010000000000
(1608055975.318512) can0 202#90DAFF0000000000
(1608055975.319600) can0 0C0#022DAF0000000000
(1608055975.319975) can0 201#9026010000000000
(1608055975.320340) can0 4EC#0047FFDE00930000
(1608055975.321018) can0 0C0#011387138B138D32
(1608055975.321498) can0 202#90DAFF0000000000
(1608055975.322240) can0 4ED#00040003FF9D0000
(1608055975.322617) can0 0C0#0001910192019104
(1608055975.323008) can0 201#9026010000000000
(1608055975.323366) can0 0D0#150309030900006B
(1608055975.323686) can0 202#90DAFF0000000000
(1608055975.323987) can0 0D0#080000000000006B
(1608055975.324277) can0 201#9026010000000000
(1608055975.324600) can0 0D0#0700077D00000001
(1608055975.324920) can0 202#90DAFF0000000000
(1608055975.325234) can0 4EC#0045FFD900910000
(1608055975.325579) can0 0AA#0500080000
(1608055975.325927) can0 0AA#014208619DD29A32
(1608055975.326256) can0 0D0#060000010000006B
(1608055975.326582) can0 201#9026010000000000
(1608055975.326938) can0 4ED#00040003FF9D0000
(1608055975.327279) can0 202#90DAFF0000000000
(1608055975.327599) can0 201#9026010000000000
(1608055975.328548) can0 202#90DAFF0000000000
(1608055975.328908) can0 0B0#0102600500000000
(1608055975.329251) can0 4EC#0042FFED00920000
(1608055975.329603) can0 201#9026010000000000
(1608055975.329926) can0 0B0#02640105E8010089
(1608055975.330342) can0 4ED#00040002FF9E0000
(1608055975.330677) can0 202#90DAFF0000000000
(1608055975.331576) can0 201#90C4000000000000
(1608055975.332587) can0 202#903C000000000000
(1608055975.332906) can0 0AF#000000
(1608055975.333588) can0 201#90C4000000000000
(1608055975.333960) can0 4EC#0044FFF200900000
